(1607034635.136375) can0 18EFAA80#0D500096550B0B00
(1607034635.136938) can0 18EFAA80#0D518000D3FF97EF
(1607034635.137594) can0 18EFAA80#0D52BCFF0200F0FF
(1607034635.140758) can0 18EFAAC6#A140B40500000000
(1607034635.141806) can0 18EFC6AA#A1010000B4050000
(1607034635.142758) can0 18F610AA#F720E0D4F6F9E669
(1607034635.143312) can0 18F618AA#E145A18CDCB1B4C1
(1607034635.143817) can0 18F619AA#878DBBC38B5F8C2E
(1607034635.144358) can0 18F61AAA#9C3DDFED1B63235F
(1607034635.144885) can0 18F61BAA#A75D10E5E95E880A
(1607034635.145433) can0 18F61CAA#A09C523909B81C01
(1607034635.156333) can0 18EFAA80#0D6000AA550B0B00
(1607034635.156983) can0 18EFAA80#0D616C00DDFFD4EF
(1607034635.157591) can0 18EFAA80#0D62ABFF0E00EEFF
(1607034635.159613) can0 18EFC6AA#A1010000B4050000
(1607034635.160206) can0 18EFC6AA#A000140000000000
(1607034635.160713) can0 18F610AA#878BD00E98CFD65F
(1607034635.161285) can0 18EFAAC6#A140B40500000000
(1607034635.161839) can0 18EFAAC6#A000140009080000
(1607034635.162395) can0 18F618AA#92A4BD9D3022DBA8
(1607034635.162907) can0 18F619AA#2CBF85810B8D33B8
(1607034635.163455) can0 18F61AAA#2EFEC7C31F461913
(1607034635.163994) can0 18F61BAA#50E6164A3A34DCEB
(1607034635.164526) can0 18F61CAA#04425E57988DAA32
(1607034635.176345) can0 18EFAA80#0D7000BE550B0B00
(1607034635.176894) can0 18EFAA80#0D717900F1FF1AF0
(1607034635.177591) can0 18EFAA80#0D72A2FF1B00E9FF
(1607034635.179654) can0 18EFC6AA#A1010000B4050000
(1607034635.180246) can0 18EFC6AA#A0002A0000000000
(1607034635.180783) can0 18F610AA#9DADEC59170BF7FF
(1607034635.194238) can0 18EFAAC6#A140B30500000000
(1607034635.194265) can0 18EFAAC6#A200000000000000
(1607034635.194267) can0 18EFAAC6#A0002A0091050000
(1607034635.194270) can0 18F618AA#8BEF1FE10A7D5BF6
(1607034635.194272) can0 18F619AA#68DE0214D180C5D4
(1607034635.194274) can0 18F61AAA#41CE0E83EAE52B6C
(1607034635.194278) can0 18F61BAA#224E73BD1B10ADCD
(1607034635.194281) can0 18F61CAA#42FA33FAD545A223
(1607034635.196349) can0 18EFAA80#0D8000D2550B0B00
(1607034635.196930) can0 18EFAA80#0D818200000057F0
(1607034635.197584) can0 18EFAA80#0D829FFF2300ECFF
(1607034635.199593) can0 18EFC6AA#A1010000B3050000
(1607034635.200171) can0 18EFC6AA#A0001B0000000000
(1607034635.200727) can0 18FEF3AA#8418F3943865843E
(1607034635.201280) can0 18EFAAC6#A140B30500000000
(1607034635.201864) can0 18EFAAC6#A0001B0000000000
(1607034635.202402) can0 18FEE8AA#D965E601C362814D
(1607034635.202918) can0 18F610AA#463B22925AEBF6B5
(1607034635.203458) can0 18F618AA#87C4813664169907
(1607034635.203998) can0 18F619AA#2D14286F5A25D9CA
(1607034635.204550) can0 18F61AAA#5194FB27A01793C2
(1607034635.205082) can0 18F61BAA#2C8FFD6EADF0138C
(1607034635.205594) can0 18F61CAA#391E6DCF1623969D
(1607034635.216337) can0 18EFAA80#0D9000E6550B0B00
(1607034635.216919) can0 18EFAA80#0D916A002C0079F0
(1607034635.217802) can0 18EFAA80#0D929DFF2B00EAFF
(1607034635.219617) can0 18EFC6AA#A1010000B3050000
(1607034635.220246) can0 18EFC6AA#A000000000000000
(1607034635.220748) can0 18F610AA#2BCFD394D8126FC0
(1607034635.221311) can0 18EFAAC6#A140B30500000000
(1607034635.221889) can0 18EFAAC6#A000000001000000
(1607034635.222447) can0 18F618AA#8C9F025E6CABD9EB
(1607034635.222967) can0 18F619AA#7126EE135DE1EC6D
(1607034635.223486) can0 18F61AAA#1942E45C013DAA78
(1607034635.224018) can0 18F61BAA#22708E29D4E5CFE7
(1607034635.224573) can0 18F61CAA#079EC5C84934076D
(1607034635.236333) can0 18EFAA80#0DA000FA550B0B00
(1607034635.236928) can0 18EFAA80#0DA168001F0052F0
(1607034635.237583) can0 18EFAA80#0DA29BFF2F00EBFF
(1607034635.239591) can0 18EFC6AA#A1010000B3050000
(1607034635.240480) can0 18F610AA#71199EAB61744DCC
(1607034635.254191) can0 18EFAAC6#A140B30500000000
(1607034635.254212) can0 18F618AA#E3CBBF28807A00CF
(1607034635.254214) can0 18F619AA#B5D0A2A5C82620DE
(1607034635.254217) can0 18F61AAA#2DB742FE636C9911
(1607034635.254218) can0 18F61BAA#3CA0928F44B9B838
(1607034635.254220) can0 18F61CAA#784E6840EC6EDCF6
(1607034635.256340) can0 18EFAA80#0DB0000E560B0B00
(1607034635.256945) can0 18EFAA80#0DB15F0029002BF0
(1607034635.257578) can0 18EFAA80#0DB299FF2F00F0FF
(1607034635.259352) can0 18EFC6AA#A1010000B3050000
(1607034635.260445) can0 18FEE6AA#B91D160C0C230000
(1607034635.261015) can0 18EFAAC6#A140B30500000000
(1607034635.261564) can0 18F610AA#46C0BF0B8FD18178
(1607034635.262080) can0 18F618AA#6EF4A51EE44B0661
(1607034635.262629) can0 18F619AA#61DC07A8E941BEC7
(1607034635.263157) can0 18F61AAA#2C9894008624DBFE
(1607034635.263712) can0 18F61BAA#9D5BFEA0BCE49FB3
(1607034635.264227) can0 18F61CAA#6404E8C1CBB4B6B0
(1607034635.276338) can0 18EFAA80#0DC00022560B0B00
(1607034635.276916) can0 18EFAA80#0DC1540039002FF0
(1607034635.277582) can0 18EFAA80#0DC294FF2F00EEFF
(1607034635.279659) can0 18EFC6AA#A1010000B3050000
(1607034635.280967) can0 18EFAAC6#A140B30500000000
(1607034635.281483) can0 18F610AA#7F21C58A047EFB91
(1607034635.282056) can0 18EFAAC6#A200000000000000
(1607034635.282600) can0 18F618AA#ABBF50B5E1773C25
(1607034635.283138) can0 18F619AA#1E71E0A00C0B67C2
(1607034635.283668) can0 18F61AAA#7E7C751DFC84791D
(1607034635.284231) can0 18F61BAA#A7820F73F6488184
(1607034635.284773) can0 18F61CAA#9AA39D41573E8962
(1607034635.296342) can0 18EFAA80#0DD00036560B0B00
(1607034635.296897) can0 18EFAA80#0DD15400550022F0
(1607034635.297584) can0 18EFAA80#0DD29CFF2D00F6FF
(1607034635.299630) can0 18EFC6AA#A1010000B3050000
(1607034635.300602) can0 18FEF3AA#8818F3943A65843E
(1607034635.301172) can0 18EFAAC6#A140B20500000000
(1607034635.301721) can0 18FEE8AA#D465E601CE62814D
(1607034635.302254) can0 18F610AA#E6940BC2D67E3518
(1607034635.302767) can0 18F618AA#DE864CFA6A9ADC1B
(1607034635.303328) can0 18F619AA#A4BE8B868EF221EA
(1607034635.303848) can0 18F61AAA#007486DD0E43B700
(1607034635.304394) can0 18F61BAA#B567BF7EB69206AB
(1607034635.304928) can0 18F61CAA#2089F3BF22A901BB
(1607034635.316333) can0 18EFAA80#0DE0004A560B0B00
(1607034635.316893) can0 18EFAA80#0DE167007300EDEF
(1607034635.317598) can0 18EFAA80#0DE2A6FF2B00FDFF
(1607034635.320623) can0 18EFC6AA#A1010000B2050000
(1607034635.321219) can0 18EFAAC6#A140B20500000000
(1607034635.321719) can0 18F610AA#FCAFDFE9661D2A99
(1607034635.322255) can0 18F618AA#28ABC6D26D5E689C
(1607034635.322792) can0 18F619AA#4A32745770416D8C
(1607034635.323333) can0 18F61AAA#CB85C1A237DBEB68
(1607034635.323895) can0 18F61BAA#3D062630914177DF
(1607034635.324424) can0 18F61CAA#1ABCA1011CFE00F6
(1607034635.336338) can0 18EFAA80#0DF0005E560B0B00
(1607034635.336905) can0 18EFAA80#0DF175007600C5EF
(1607034635.337588) can0 18EFAA80#0DF2B0FF23000600
(1607034635.339646) can0 18EFC6AA#A1010000B2050000
(1607034635.340553) can0 18F610AA#9FC0BEF9EDC2F896
(1607034635.341122) can0 18EFAAC6#A140B20500000000
(1607034635.341652) can0 18F618AA#D2F731B1785DB74C
(1607034635.342182) can0 18F619AA#062503B7BDDF2702
(1607034635.342732) can0 18F61AAA#C40270A9A138580B
(1607034635.343329) can0 18F61BAA#65112CF5A27CF35C
(1607034635.343823) can0 18F61CAA#63254AE4147C7F78
(1607034635.356337) can0 18EFAA80#0D000072560B0B00
(1607034635.356939) can0 18EFAA80#0D018F008600C6EF
(1607034635.357579) can0 18EFAA80#0D02B8FF1D000A00
(1607034635.359632) can0 18EFC6AA#A1010000B2050000
(1607034635.360191) can0 18EFC6AA#A000140000000000
(1607034635.360711) can0 18F610AA#2D09AE42FB7223D6
(1607034635.361280) can0 18EFAAC6#A000140008080000
(1607034635.361851) can0 18EFAAC6#A140B20500000000
(1607034635.362381) can0 18F618AA#C720A27A625487EB
(1607034635.362906) can0 18F619AA#12100A7AF7509B68
(1607034635.363459) can0 18F61AAA#3158A7B7A947904F
(1607034635.363969) can0 18F61BAA#6A7E3849E8A23D58
(1607034635.364506) can0 18F61CAA#16EB03A3F51A9B3B
(1607034635.376332) can0 18EFAA80#0D100086560B0B00
(1607034635.376898) can0 18EFAA80#0D11A3009200E4EF
(1607034635.377582) can0 18EFAA80#0D12C5FF16000C00
(1607034635.379652) can0 18EFC6AA#A1010000B2050000
(1607034635.380223) can0 18EFC6AA#A0002A0000000000
(1607034635.380755) can0 18F610AA#0F0F71EBCCE184D1
(1607034635.381336) can0 18EFAAC6#A0002A008E050000
(1607034635.381876) can0 18EFAAC6#A140B20500000000
(1607034635.382450) can0 18EFAAC6#A200000000000000
(1607034635.382975) can0 18F618AA#4EE692EEC3CCF1A6
(1607034635.383510) can0 18F619AA#A49284FC40F5CEE3
(1607034635.384038) can0 18F61AAA#B915D61B6109938D
(1607034635.384593) can0 18F61BAA#8F54B26EF272C726
(1607034635.385138) can0 18F61CAA#6346DBC809FFCEFF
(1607034635.396334) can0 18EFAA80#0D20009A560B0B00
(1607034635.396918) can0 18EFAA80#0D21B300A90009F0
(1607034635.397576) can0 18EFAA80#0D22D2FF12000D00
(1607034635.399583) can0 18EFC6AA#A1010000B2050000
(1607034635.400018) can0 18EFC6AA#01555400
(1607034635.400600) can0 18EFC6AA#A0001B0000000000
(1607034635.415344) can0 18EFAAC6#01555500
(1607034635.415369) can0 18EFAAC6#A140B30500000000
(1607034635.415375) can0 18EFAAC6#A0001B0000000000
(1607034635.415379) can0 18FEF3AA#8C18F3943C65843E
(1607034635.415388) can0 18FEE8AA#BA65F101DE62814D
(1607034635.415390) can0 18F610AA#A11FB2CC13436BB2
(1607034635.415393) can0 18F618AA#4A2BC7CD1EEB598D
(1607034635.415395) can0 18F619AA#09451CD975CE9887
(1607034635.415398) can0 18F61AAA#8A4B618776DA2FE2
(1607034635.415401) can0 18F61BAA#9FC2B0AFE00902C7
(1607034635.415404) can0 18F61CAA#092C37BA55E4DDB5
(1607034635.416391) can0 18EFAA80#0D3000AE560B0B00
(1607034635.416959) can0 18EFAA80#0D31E200930025F0
(1607034635.417583) can0 18EFAA80#0D32DEFF0D001400
(1607034635.419575) can0 18EFC6AA#A1010000B3050000
(1607034635.420175) can0 18EFC6AA#A000000000000000
(1607034635.420711) can0 18F610AA#80AF48D0EBEA3C6F
(1607034635.421281) can0 18EFAAC6#A000000001000000
(1607034635.421870) can0 18EFAAC6#A140B30500000000
(1607034635.422393) can0 18F618AA#F6A17F34AD86723B
(1607034635.422921) can0 18F619AA#3A0CF221AD194608
(1607034635.423445) can0 18F61AAA#E6D469EFC6F8A9DB
(1607034635.423986) can0 18F61BAA#F21B9ECFB983DA03
(1607034635.424521) can0 18F61CAA#7611BD183CD9DF86
(1607034635.436356) can0 18EFAA80#0D4000C2560B0B00
(1607034635.436907) can0 18EFAA80#0D41FA009B0041F0
(1607034635.437605) can0 18EFAA80#0D42E9FF0A001600
(1607034635.439637) can0 18EFC6AA#A1010000B3050000
(1607034635.440520) can0 18F610AA#693C9D2F7C054FC4
(1607034635.441048) can0 18F618AA#82706D8842CEC1E3
(1607034635.441610) can0 18EFAAC6#A140B30500000000
(1607034635.442123) can0 18F619AA#940CB8AE91D3C211
(1607034635.442655) can0 18F61AAA#90D099B773BE88C3
(1607034635.443184) can0 18F61BAA#8AC5F7186A5A7B6C
(1607034635.443760) can0 18F61CAA#635A4A0804528579
(1607034635.456336) can0 18EFAA80#0D5000D6560B0B00
(1607034635.456924) can0 18EFAA80#0D51FD00B7006FF0
(1607034635.457592) can0 18EFAA80#0D52EEFF0B001900
(1607034635.459579) can0 18EFC6AA#A1010000B3050000
(1607034635.460451) can0 18F610AA#C4F2B76864468CA1
(1607034635.461043) can0 18F618AA#807FF41473D3BDEE
(1607034635.461588) can0 18EFAAC6#A140B40500000000
(1607034635.462098) can0 18F619AA#371E25E6CB00D125
(1607034635.462627) can0 18F61AAA#9BFDAAD9454CEC6A
(1607034635.463178) can0 18F61BAA#F894ECF228E40790
(1607034635.463689) can0 18F61CAA#66858C83F1D1FE50
(1607034635.476358) can0 18EFAA80#0D6000EA560B0B00
(1607034635.476904) can0 18EFAA80#0D610301A7006CF0
(1607034635.477632) can0 18EFAA80#0D62F2FF0C001A00
(1607034635.479647) can0 18EFC6AA#A1010000B4050000
(1607034635.480588) can0 18F610AA#5F6B9C9D1822522A
(1607034635.481074) can0 18F618AA#5673B9CF4405923F
(1607034635.481634) can0 18EFAAC6#A140B40500000000
(1607034635.482214) can0 18EFAAC6#A200000000000000
(1607034635.482759) can0 18F619AA#91EE0E32CCD7B44F
(1607034635.483441) can0 18F61AAA#6436EF53ECA9E5FA
(1607034635.483869) can0 18F61BAA#9C347FCBB83DD728
(1607034635.484429) can0 18F61CAA#434619A5D04EC446
(1607034635.496339) can0 18EFAA80#0D7000FE560B0B00
(1607034635.496905) can0 18EFAA80#0D712C01760044F0
(1607034635.497588) can0 18EFAA80#0D72EDFF09001900
(1607034635.499664) can0 18EFC6AA#A1010000B4050000
(1607034635.500635) can0 18FEF3AA#9018F3943F65843E
(1607034635.501189) can0 18FEE8AA#B965F101DF62814D
(1607034635.501751) can0 18EFAAC6#A140B50500000000
(1607034635.502288) can0 18FEE6AA#BA1D160C0C230000
(1607034635.502829) can0 18F610AA#9B8B58B3CDCA93F6
(1607034635.503450) can0 18F618AA#7D59DF3DBEAA38DF
(1607034635.503927) can0 18F619AA#B3FA5CCD0CA38949
(1607034635.504459) can0 18F61AAA#81FE100793BAB2A6
(1607034635.505092) can0 18F61BAA#D6A21D2EBECDA2A0
(1607034635.505517) can0 18F61CAA#290EC98847141168
(1607034635.516406) can0 18EFAA80#0D800012570B0B00
(1607034635.516908) can0 18EFAA80#0D8145018E0053F0
(1607034635.517588) can0 18EFAA80#0D82F3FF05001600
(1607034635.519718) can0 18EFC6AA#A1010000B5050000
(1607034635.520731) can0 18F610AA#FC1BE102FD8AB4C0
(1607034635.521243) can0 18F618AA#C775AF1C33317D93
(1607034635.521754) can0 18EFAAC6#A140B60500000000
(1607034635.522294) can0 18F619AA#A4235FC0541C492C
(1607034635.522841) can0 18F61AAA#4F4203909A586D80
(1607034635.523413) can0 18F61BAA#E58D3D2BDA3561D4
(1607034635.524005) can0 18F61CAA#0AC42A66BFD81FC9
(1607034635.536328) can0 18EFAA80#0D900026570B0B00
(1607034635.536959) can0 18EFAA80#0D91070167004FF0
(1607034635.537589) can0 18EFAA80#0D92ECFF09001200
(1607034635.539624) can0 18EFC6AA#A1010000B6050000
(1607034635.540515) can0 18F610AA#BC817FD708099FAE
(1607034635.541052) can0 18F618AA#627A6C0607F6BA0F
(1607034635.554750) can0 18EFAAC6#A140B60500000000
(1607034635.554775) can0 18F619AA#676F1D96DA875F7D
(1607034635.554778) can0 18F61AAA#4076639D959700EB
(1607034635.554779) can0 18F61BAA#3580BC4B07C5BB14
(1607034635.554781) can0 18F61CAA#A937A9201A6B7FD8
(1607034635.556345) can0 18EFAA80#0DA0003A570B0B00
(1607034635.556935) can0 18EFAA80#0DA1F3005800F4EF
(1607034635.557573) can0 18EFAA80#0DA2F0FF13001200
(1607034635.561293) can0 18EFAAC6#A140B70500000000
(1607034635.561885) can0 18EFC6AA#A1010000B6050000
(1607034635.562484) can0 18EFC6AA#A000140000000000
(1607034635.563013) can0 18F610AA#179E961534B0BA6A
(1607034635.563583) can0 18EFAAC6#A000140008080000
(1607034635.564115) can0 18F618AA#95D84A49A372B503
(1607034635.564647) can0 18F619AA#3B2C808F0159A912
(1607034635.565169) can0 18F61AAA#F3BD71D5D8C42DAC
(1607034635.565702) can0 18F61BAA#8D3353AE97015671
(1607034635.566243) can0 18F61CAA#62C0DD9A7A703904
(1607034635.576333) can0 18EFAA80#0DB0004E570B0B00
(1607034635.576905) can0 18EFAA80#0DB1230154007FEF
(1607034635.577764) can0 18EFAA80#0DB2F0FF18001000
(1607034635.579641) can0 18EFC6AA#A1010000B7050000
(1607034635.580210) can0 18EFC6AA#A0002A0000000000
(1607034635.580750) can0 18F610AA#C8B3DEF594996E56
(1607034635.581308) can0 18EFAAC6#A0002A008B050000
(1607034635.581890) can0 18EFAAC6#A140B70500000000
(1607034635.582549) can0 18EFAAC6#A200000000000000
(1607034635.583011) can0 18F618AA#3FBBDC1BCADA87A0
(1607034635.583593) can0 18F619AA#E3BABE7A90DC6951
(1607034635.584053) can0 18F61AAA#2C8E673777BD450C
(1607034635.584586) can0 18F61BAA#87945AB25F27640A
(1607034635.585146) can0 18F61CAA#05900791CDA3500E
(1607034635.596335) can0 18EFAA80#0DC00062570B0B00
(1607034635.596919) can0 18EFAA80#0DC146013B0063EF
(1607034635.597582) can0 18EFAA80#0DC2ECFF0F000A00
(1607034635.599604) can0 18EFC6AA#A1010000B7050000
(1607034635.600187) can0 18EFC6AA#A0001B0000000000
(1607034635.600805) can0 18EFAAC6#A0001B0000000000
(1607034635.601369) can0 18EFAAC6#A140B80500000000
(1607034635.602688) can0 18FEF3AA#9418F3944065843E
(1607034635.603341) can0 18FEE8AA#BF65C501F962814D
(1607034635.603805) can0 18F610AA#4AB357F0CE1F127A
(1607034635.604323) can0 18F618AA#991756F117A9273C
(1607034635.604864) can0 18F619AA#5210F24D5E71B3FD
(1607034635.605334) can0 18F61AAA#D7371E42D01942B0
(1607034635.605882) can0 18F61BAA#88648202DA406B25
(1607034635.606410) can0 18F61CAA#30F96153A3D8A594
(1607034635.616347) can0 18EFAA80#0DD00076570B0B00
(1607034635.616907) can0 18EFAA80#0DD14101180081EF
(1607034635.617596) can0 18EFAA80#0DD2EEFF07000300
(1607034635.619592) can0 18EFC6AA#A1010000B8050000
(1607034635.620193) can0 18EFC6AA#A000000000000000
(1607034635.620720) can0 18F610AA#3B88F019360CCD94
(1607034635.634298) can0 18EFAAC6#A000000001000000
(1607034635.634330) can0 18EFAAC6#A140B80500000000
(1607034635.634334) can0 18F618AA#CFDA53B5B7656523
(1607034635.634339) can0 18F619AA#09EE6D0E9C4D90D6
(1607034635.634348) can0 18F61AAA#DBF0C485039024DC
(1607034635.634351) can0 18F61BAA#23BF922A78FD27D9
(1607034635.634354) can0 18F61CAA#7395DD87D37210DC
(1607034635.636340) can0 18EFAA80#0DE0008A570B0B00
(1607034635.636906) can0 18EFAA80#0DE10C013D00DFEF
(1607034635.637592) can0 18EFAA80#0DE2ECFF09000200
(1607034635.639618) can0 18EFC6AA#A1010000B8050000
(1607034635.640527) can0 18F610AA#DAAC784B59CDF855
(1607034635.641056) can0 18F618AA#40B9229D3B743FFF
(1607034635.641617) can0 18EFAAC6#A140B90500000000
(1607034635.642147) can0 18F619AA#CBDCCCC311F26E7B
(1607034635.642696) can0 18F61AAA#932191945295E9DB
(1607034635.643218) can0 18F61BAA#FFBD7C0F96251283
(1607034635.643771) can0 18F61CAA#489BDB96A50504A0
(1607034635.656715) can0 18EFAA80#0DF0009E570B0B00
(1607034635.657302) can0 18EFAA80#0DF125017600E7EF
(1607034635.658062) can0 18EFAA80#0DF2EEFF1400FDFF
(1607034635.659622) can0 18EFC6AA#A1010000B9050000
(1607034635.660547) can0 18F610AA#0C173156BD144768
(1607034635.661108) can0 18F618AA#C33AE2B5CC1E4100
(1607034635.661648) can0 18EFAAC6#A140BA0500000000
(1607034635.662176) can0 18F619AA#8EA9D6273ACF6CB7
(1607034635.662712) can0 18F61AAA#459F77F708EC6BC4
(1607034635.663281) can0 18F61BAA#03A8DACFC1D22494
(1607034635.663784) can0 18F61CAA#B7A64043F35497B8
(1607034635.676328) can0 18EFAA80#0D0000B2570B0B00
(1607034635.676900) can0 18EFAA80#0D0144016300E1EF
(1607034635.677588) can0 18EFAA80#0D02EEFF1800F5FF
(1607034635.679745) can0 18EFC6AA#A1010000BA050000
(1607034635.680564) can0 18F610AA#F13FDB71B1841356
(1607034635.681107) can0 18F618AA#D40467D7E67EF6C6
(1607034635.681682) can0 18EFAAC6#A140BB0500000000
(1607034635.682228) can0 18F619AA#42F003476F37F907
(1607034635.682788) can0 18EFAAC6#A200000000000000
(1607034635.683405) can0 18F61AAA#D337CF338E9B8ADA
(1607034635.683859) can0 18F61BAA#0B4A78A0B3F110CA
(1607034635.684451) can0 18F61CAA#3EA54BFCD1F79C53
(1607034635.696330) can0 18EFAA80#0D1000C6570B0B00
(1607034635.696938) can0 18EFAA80#0D1137019F0015F0
(1607034635.697572) can0 18EFAA80#0D12EFFF1500F3FF
(1607034635.699720) can0 18EFC6AA#A1010000BB050000
(1607034635.700636) can0 18FEF3AA#9818F3944265843E
(1607034635.701188) can0 18FEE8AA#C165C501FB62814D
(1607034635.701721) can0 18EFAAC6#A140BD0500000000
(1607034635.702270) can0 18F610AA#1AE47D84187F6F2B
(1607034635.702799) can0 18F618AA#4384C9DC7C258CE1
(1607034635.703330) can0 18F619AA#4EEA5A5DC5E81280
(1607034635.703924) can0 18F61AAA#1828822EE20154A4
(1607034635.704474) can0 18F61BAA#50AD537C303F2CC1
(1607034635.705008) can0 18F61CAA#9D9E2527234590B5
(1607034635.716328) can0 18EFAA80#0D2000DA570B0B00
(1607034635.716950) can0 18EFAA80#0D212C018F0069F0
(1607034635.717788) can0 18EFAA80#0D22F3FF0B00F5FF
(1607034635.719749) can0 18EFC6AA#A1010000BD050000
(1607034635.721004) can0 18F610AA#3132DB23F0D61BE9
(1607034635.721683) can0 18EFAAC6#A140BE0500000000
(1607034635.722100) can0 18F618AA#9B5875AC4EAC9686
(1607034635.722644) can0 18F619AA#0FD17A0D095077F8
(1607034635.723202) can0 18F61AAA#25F6F679D348C23F
(1607034635.723711) can0 18F61BAA#79CF099099B04343
(1607034635.724239) can0 18F61CAA#52F73A8E02B2AEF7
(1607034635.736338) can0 18EFAA80#0D3000EE570B0B00
(1607034635.737018) can0 18EFAA80#0D312D018F00A5F0
(1607034635.737578) can0 18EFAA80#0D32F1FF0500F5FF
(1607034635.739657) can0 18EFC6AA#A1010000BE050000
(1607034635.740953) can0 18F610AA#582216D25F6E2C5F
(1607034635.741505) can0 18F618AA#12A61E84D2686C01
(1607034635.742057) can0 18EFAAC6#A140BF0500000000
(1607034635.742623) can0 18F619AA#75E1D3E570642BB5
(1607034635.743212) can0 18F61AAA#CE1678F1F9147983
(1607034635.743658) can0 18F61BAA#164A8D84C326C8B8
(1607034635.744202) can0 18F61CAA#9BA73BAA8ADDC0CD
(1607034635.756358) can0 18EFAA80#0D400002580B0B00
(1607034635.756929) can0 18EFAA80#0D4119018E006DF0
(1607034635.757583) can0 18EFAA80#0D42F5FF0000F1FF
(1607034635.759638) can0 18EFC6AA#A1010000BF050000
(1607034635.760210) can0 18EFC6AA#A000140000000000
(1607034635.760777) can0 18FEE6AA#BB1D160C0C230000
(1607034635.774570) can0 18EFAAC6#A000140008080000
(1607034635.774595) can0 18EFAAC6#A140BF0500000000
(1607034635.774598) can0 18F610AA#EEC57B134B829201
(1607034635.774600) can0 18F618AA#D02C00761C120D84
(1607034635.774602) can0 18F619AA#913B88B972C253D2
(1607034635.774605) can0 18F61AAA#D83DA51AEFFF5C3A
(1607034635.774607) can0 18F61BAA#B31CBC43F0A7AD14
(1607034635.774610) can0 18F61CAA#8A49ACC9B6FF8BC5
(1607034635.776368) can0 18EFAA80#0D500016580B0B00
(1607034635.776903) can0 18EFAA80#0D511E01610029F0
(1607034635.777588) can0 18EFAA80#0D52F5FFFCFFF6FF
(1607034635.779679) can0 18EFC6AA#A1010000BF050000
(1607034635.780258) can0 18EFC6AA#A0002A0000000000
(1607034635.780802) can0 18F610AA#315A48AE558817EC
(1607034635.795073) can0 18EFAAC6#A0002A0090050000
(1607034635.795101) can0 18EFAAC6#A140C00500000000
(1607034635.795104) can0 18EFAAC6#A200000000000000
(1607034635.795108) can0 18F618AA#FD2E0CE35ECE5F15
(1607034635.795113) can0 18F619AA#43760DC87FB81FDB
(1607034635.795117) can0 18F61AAA#15D3C205ED9FF1D1
(1607034635.795120) can0 18F61BAA#61CEC3589574D561
(1607034635.795122) can0 18F61CAA#70731334F78D8D29
(1607034635.796331) can0 18EFAA80#0D60002A580B0B00
(1607034635.796903) can0 18EFAA80#0D610B015C00F3EF
(1607034635.797596) can0 18EFAA80#0D62F5FFF9FFF7FF
(1607034635.799384) can0 18EFC6AA#A1010000C0050000
(1607034635.799952) can0 18EFC6AA#A0001B0000000000
(1607034635.800629) can0 18EFAAC6#A0001B0000000000
(1607034635.801162) can0 18FEF3AA#9818F3944165843E
(1607034635.801754) can0 18EFAAC6#A140C00500000000
(1607034635.802270) can0 18FEE8AA#BD6562010963814D
(1607034635.802808) can0 18F610AA#0D6DF41A45A71E96
(1607034635.803346) can0 18F618AA#A148B610ECE68B3F
(1607034635.803921) can0 18F619AA#341E5925233794E3
(1607034635.804416) can0 18F61AAA#79422E6B27C69C4A
(1607034635.804962) can0 18F61BAA#E9CB0EFA5AB468AF
(1607034635.805492) can0 18F61CAA#B3BAE90BA0FC2B6F
(1607034635.816338) can0 18EFAA80#0D70003E580B0B00
(1607034635.816904) can0 18EFAA80#0D71EA006200B4EF
(1607034635.817582) can0 18EFAA80#0D72F6FFF8FF0000
(1607034635.819657) can0 18EFC6AA#A1010000C0050000
(1607034635.820246) can0 18EFC6AA#A000000000000000
(1607034635.820750) can0 18F610AA#B6F67C25769919A4
(1607034635.821326) can0 18EFAAC6#A000000001000000
(1607034635.821909) can0 18EFAAC6#A140BF0500000000
(1607034635.822473) can0 18F618AA#61BFEEF0A7F6D3C5
(1607034635.822980) can0 18F619AA#07761A53B284775D
(1607034635.823494) can0 18F61AAA#E26FF6CF476F00EC
(1607034635.824049) can0 18F61BAA#797AFFCD34740599
(1607034635.824570) can0 18F61CAA#261D50415E6AE9EB
(1607034635.836326) can0 18EFAA80#0D800052580B0B00
(1607034635.836902) can0 18EFAA80#0D81EE0047008FEF
(1607034635.837621) can0 18EFAA80#0D82F7FFF3FF0000
(1607034635.839641) can0 18EFC6AA#A1010000BF050000
(1607034635.840456) can0 18F610AA#774882A96F7F54EA
(1607034635.841030) can0 18F618AA#D97DB0FB26FEDFD4
(1607034635.841545) can0 18F619AA#CB07AEAE736D8DCF
(1607034635.842097) can0 18EFAAC6#A140BF0500000000
(1607034635.842633) can0 18F61AAA#B59373E97BB7CE58
(1607034635.843170) can0 18F61BAA#8A753DBD90A0597F
(1607034635.843698) can0 18F61CAA#A4547215427771DF
(1607034635.856325) can0 18EFAA80#0D900066580B0B00
(1607034635.856902) can0 18EFAA80#0D91CC0030007BEF
(1607034635.857599) can0 18EFAA80#0D92F5FFEDFFFDFF
(1607034635.859644) can0 18EFC6AA#A1010000BF050000
(1607034635.860560) can0 18F610AA#1AEEFAB78DBEDFCE
(1607034635.861109) can0 18F618AA#22C198587E332EC1
(1607034635.861656) can0 18F619AA#A51505B01E3205A7
(1607034635.862205) can0 18EFAAC6#A140BF0500000000
(1607034635.862782) can0 18F61AAA#6129E89CA1B95CF4
(1607034635.863760) can0 18F61BAA#DDF7130316B33399
(1607034635.864037) can0 18F61CAA#C245A6D2443E53C4
(1607034635.876333) can0 18EFAA80#0DA0007A580B0B00
(1607034635.876990) can0 18EFAA80#0DA1820027007AEF
(1607034635.877612) can0 18EFAA80#0DA2EDFFE7FF0200
(1607034635.879661) can0 18EFC6AA#A1010000BF050000
(1607034635.880596) can0 18F610AA#E37B7DA77BE72BAB
(1607034635.881123) can0 18F618AA#F87AA6DFB545F4CA
(1607034635.881691) can0 18F619AA#18E03E299A0CA5EB
(1607034635.882260) can0 18EFAAC6#A140BF0500000000
(1607034635.882933) can0 18EFAAC6#A200000000000000
(1607034635.883615) can0 18F61AAA#5D628D1C9780CDB4
(1607034635.883877) can0 18F61BAA#AD5134F77B281903
(1607034635.884425) can0 18F61CAA#D9D7684F53E7CD2F
(1607034635.896329) can0 18EFAA80#0DB0008E580B0B00
(1607034635.896922) can0 18EFAA80#0DB19E001A0091EF
(1607034635.897601) can0 18EFAA80#0DB2EFFFE4FF0300
(1607034635.901502) can0 18EFC6AA#A1010000BF050000
(1607034635.902057) can0 18EFAAC6#A140BE0500000000
(1607034635.903060) can0 18FEF3AA#9B18F3944365843E
(1607034635.903613) can0 18FEE8AA#B9656201FF62814D
(1607034635.904149) can0 18F610AA#CC76336381F60680
(1607034635.904667) can0 18F618AA#A3B4BE30A9545196
(1607034635.905203) can0 18F619AA#921985C6A5B23BF6
(1607034635.905756) can0 18F61AAA#6E65D6FC4A1E3310
(1607034635.906285) can0 18F61BAA#02A648CB381A378A
(1607034635.906832) can0 18F61CAA#35D91AA7DC437BF0
(1607034635.916361) can0 18EFAA80#0DC000A2580B0B00
(1607034635.916934) can0 18EFAA80#0DC1AB001700AFEF
(1607034635.917637) can0 18EFAA80#0DC2F2FFE2FF0700
(1607034635.921746) can0 18EFAAC6#A140BE0500000000
(1607034635.923326) can0 18EFC6AA#A1010000BE050000
(1607034635.924438) can0 18F610AA#5A8B76D95EF6A9FA
(1607034635.924973) can0 18F618AA#31978AE2F5C8BD96
(1607034635.925490) can0 18F619AA#07BB03D8D1639A53
(1607034635.926033) can0 18F61AAA#8F679F13B002672A
(1607034635.926566) can0 18F61BAA#E833482B748B30A8
(1607034635.927090) can0 18F61CAA#57B6579B75ABD58E
(1607034635.936325) can0 18EFAA80#0DD000B6580B0B00
(1607034635.936953) can0 18EFAA80#0DD186002300C6EF
(1607034635.937589) can0 18EFAA80#0DD2F1FFE8FF0A00
(1607034635.939781) can0 18EFC6AA#A1010000BE050000
(1607034635.940774) can0 18F610AA#A725F53EFD17EEE7
(1607034635.941280) can0 18F618AA#2692ECACC764DC9B
(1607034635.941857) can0 18EFAAC6#A140BE0500000000
(1607034635.942393) can0 18F619AA#92ADDBFE86EFCD1F
(1607034635.942948) can0 18F61AAA#8DD79AF8557ED483
(1607034635.943453) can0 18F61BAA#762DA23C0613590F
(1607034635.944010) can0 18F61CAA#ED30C730797B2F90
(1607034635.956386) can0 18EFAA80#0DE000CA580B0B00
(1607034635.956903) can0 18EFAA80#0DE19A003A00E2EF
(1607034635.957591) can0 18EFAA80#0DE2F4FFEFFF0E00
(1607034635.959600) can0 18EFC6AA#A1010000BE050000
(1607034635.960184) can0 18EFC6AA#A000140000000000
(1607034635.960726) can0 18F610AA#F7F7199A7F036D48
(1607034635.961292) can0 18EFAAC6#A000140008080000
(1607034635.961855) can0 18EFAAC6#A140BE0500000000
(1607034635.962368) can0 18F618AA#E711909D979C65D4
(1607034635.962900) can0 18F619AA#EC98593453C49F0B
(1607034635.963444) can0 18F61AAA#F4E48156F24F308D
(1607034635.963968) can0 18F61BAA#7643A9A7E416FEB9
(1607034635.964528) can0 18F61CAA#1C856233015CC8B1
(1607034635.976347) can0 18EFAA80#0DF000DE580B0B00
(1607034635.976899) can0 18EFAA80#0DF1A0004C00DEEF
(1607034635.977597) can0 18EFAA80#0DF2F2FFEFFF0C00
(1607034635.981492) can0 18EFC6AA#A1010000BE050000
(1607034635.982037) can0 18EFAAC6#A140BF0500000000
(1607034635.982614) can0 18EFC6AA#A0002A0000000000
(1607034635.983197) can0 18EFAAC6#A200000000000000
(1607034635.983712) can0 18F610AA#84911972BB8D97E5
(1607034635.984285) can0 18EFAAC6#A0002A0092050000
(1607034635.984813) can0 18F618AA#02F3BBB0CC62B0B4
(1607034635.985365) can0 18F619AA#9A0A53453FA7FEEE
(1607034635.985935) can0 18F61AAA#88DF11FE1A17294F
(1607034635.986431) can0 18F61BAA#B0EEBDE7C9DF61A7
(1607034635.986964) can0 18F61CAA#341D186CEC378BD9
(1607034635.996375) can0 18EFAA80#0D0000F2580B0B00
(1607034635.996921) can0 18EFAA80#0D016D0062002FF0
(1607034635.997810) can0 18EFAA80#0D02EFFFF5FF0800
(1607034635.999669) can0 18EFC6AA#A1010000BF050000
(1607034636.000229) can0 18EFC6AA#A0001B0000000000
(1607034636.000784) can0 18FEF3AA#9918F3944165843E
(1607034636.001358) can0 18EFAAC6#A0001B0000000000
(1607034636.001941) can0 18EFAAC6#A140BF0500000000
(1607034636.002479) can0 18FEE8AA#BA65D5000963814D
(1607034636.003022) can0 18FEE6AA#BC1D160C0C230000
(1607034636.003734) can0 18F610AA#28A7F50FE54F246A
(1607034636.004118) can0 18F618AA#422AA42EF9B74E10
(1607034636.004629) can0 18F619AA#A542A70B927D21F2
(1607034636.005155) can0 18F61AAA#A37D6360B3CAB152
(1607034636.005703) can0 18F61BAA#F617F7A59BBCBC0A
(1607034636.006309) can0 18F61CAA#2EA0872FE2CC2676
(1607034636.016357) can0 18EFAA80#0D100006590B0B00
(1607034636.016955) can0 18EFAA80#0D116100600031F0
(1607034636.017615) can0 18EFAA80#0D12F1FF03000A00
(1607034636.019611) can0 18EFC6AA#A1010000BF050000
(1607034636.021703) can0 18EFC6AA#A000000000000000
(1607034636.022269) can0 18EFAAC6#A140BF0500000000
(1607034636.022800) can0 18F610AA#DD244EF8F1C64DC6
(1607034636.023378) can0 18EFAAC6#A000000001000000
(1607034636.023929) can0 18F618AA#9B8825C480496977
(1607034636.024450) can0 18F619AA#6E5144C4F52FCA06
(1607034636.024986) can0 18F61AAA#AE2AA5105E0E0361
(1607034636.025530) can0 18F61BAA#7DE28278088807FD
(1607034636.026077) can0 18F61CAA#2D4C270A1C04C48F
(1607034636.036324) can0 18EFAA80#0D20001A590B0B00
(1607034636.036920) can0 18EFAA80#0D216600580007F0
(1607034636.037567) can0 18EFAA80#0D22F2FF0C000C00
(1607034636.039628) can0 18EFC6AA#A1010000BF050000
(1607034636.040473) can0 18F610AA#5C3DE1E670182BB2
(1607034636.041027) can0 18F618AA#511845F2B042F3C8
(1607034636.041553) can0 18F619AA#E0367D7A0670743E
(1607034636.055060) can0 18EFAAC6#A140BF0500000000
(1607034636.055099) can0 18F61AAA#C79955559C6AF0DA
(1607034636.055105) can0 18F61BAA#50535B6C591C705E
(1607034636.055110) can0 18F61CAA#8BD9794238A56FC0
(1607034636.056336) can0 18EFAA80#0D30002E590B0B00
(1607034636.056900) can0 18EFAA80#0D310100480049F0
(1607034636.057653) can0 18EFAA80#0D32F4FF13000C00
(1607034636.059591) can0 18EFC6AA#A1010000BF050000
(1607034636.060481) can0 18F610AA#86281208648F2DE9
(1607034636.060998) can0 18F618AA#BD949E4EB8A00A16
(1607034636.061535) can0 18F619AA#E377E536B61C0692
(1607034636.062105) can0 18EFAAC6#A140BF0500000000
(1607034636.062627) can0 18F61AAA#D2DFA772F760BC8C
(1607034636.063156) can0 18F61BAA#729D0901970F2468
(1607034636.063718) can0 18F61CAA#38DE92E7E04A3C54
(1607034636.076328) can0 18EFAA80#0D400042590B0B00
(1607034636.076929) can0 18EFAA80#0D41F7FF7200CAEF
(1607034636.077573) can0 18EFAA80#0D42F3FF11000A00
(1607034636.079629) can0 18EFC6AA#A1010000BF050000
(1607034636.080675) can0 18F610AA#5880630F83BD2EF6
(1607034636.081221) can0 18F618AA#5C12DA421FFC8C25
(1607034636.081736) can0 18F619AA#AB5C888991357914
(1607034636.082298) can0 18EFAAC6#A140BF0500000000
(1607034636.082834) can0 18F61AAA#5F6F6C903D0696CC
(1607034636.083418) can0 18EFAAC6#A200000000000000
(1607034636.083946) can0 18F61BAA#72413D707E57416C
(1607034636.084484) can0 18F61CAA#A7D324E6CB546670
(1607034636.096334) can0 18EFAA80#0D500056590B0B00
(1607034636.096885) can0 18EFAA80#0D511F005A00D0EF
(1607034636.097605) can0 18EFAA80#0D52F7FF02000800
(1607034636.099647) can0 18EFC6AA#A1010000BF050000
(1607034636.100644) can0 18FEF3AA#9B18F3944265843E
(1607034636.101165) can0 18FEE8AA#BB65D5000963814D
(1607034636.101692) can0 18F610AA#7503095241C4C812
(1607034636.102281) can0 18EFAAC6#A140BE0500000000
(1607034636.102802) can0 18F618AA#5FB64D6B4108023F
(1607034636.103431) can0 18F619AA#A31146357FE71A08
(1607034636.104018) can0 18F61AAA#307E05E8BCDC1EA2
(1607034636.104473) can0 18F61BAA#F9AE28A1DFEFE2B8
(1607034636.104999) can0 18F61CAA#72B82752AA511EBD
(1607034636.116343) can0 18EFAA80#0D60006A590B0B00
(1607034636.116894) can0 18EFAA80#0D61BBFF710016F0
(1607034636.117585) can0 18EFAA80#0D62F7FFFBFF0B00
(1607034636.119628) can0 18EFC6AA#A1010000BE050000
(1607034636.120529) can0 18F610AA#DF516EB6D776A0C9
(1607034636.121076) can0 18F618AA#41F64B9BE3A0005B
(1607034636.121603) can0 18F619AA#9DDDA51888EED9B4
(1607034636.122185) can0 18EFAAC6#A140BE0500000000
(1607034636.122716) can0 18F61AAA#9B310240D7F49C83
(1607034636.123298) can0 18F61BAA#B8C4BCA06A62BEAB
(1607034636.123786) can0 18F61CAA#33032E134A4F6ECB
(1607034636.136351) can0 18EFAA80#0D70007E590B0B00
(1607034636.136900) can0 18EFAA80#0D717CFF7500F4EF
(1607034636.137710) can0 18EFAA80#0D72F5FFF6FF0800
(1607034636.139630) can0 18EFC6AA#A1010000BE050000
(1607034636.140545) can0 18F610AA#45B6F18EFC6CD23D
(1607034636.141069) can0 18F618AA#29BB6042A19C1FF4
(1607034636.141616) can0 18F619AA#002FE59A63A358B6
(1607034636.142183) can0 18EFAAC6#A140BD0500000000
(1607034636.142706) can0 18F61AAA#0B7732356D83B4FA
(1607034636.143312) can0 18F61BAA#7CFFE58172BDE516
(1607034636.143797) can0 18F61CAA#773E163037E4AEF9
(1607034636.156712) can0 18EFAA80#0D800092590B0B00
(1607034636.157362) can0 18EFAA80#0D816FFF6600D4EF
(1607034636.158126) can0 18EFAA80#0D82F3FFF4FF0800
(1607034636.159606) can0 18EFC6AA#A1010000BD050000
(1607034636.160198) can0 18EFC6AA#A000140000000000
(1607034636.160742) can0 18F610AA#2149DBCF74BC3105
(1607034636.161295) can0 18EFAAC6#A000140008080000
(1607034636.161830) can0 18F618AA#BF52464D323587B8
(1607034636.162480) can0 18EFAAC6#A140BD0500000000
(1607034636.162920) can0 18F619AA#BF21CE01A67EA2CE
(1607034636.163476) can0 18F61AAA#7647FC7229145328
(1607034636.163997) can0 18F61BAA#8D580220FE7E7337
(1607034636.164526) can0 18F61CAA#E582B5455C5D55AE
(1607034636.176315) can0 18EFAA80#0D9000A6590B0B00
(1607034636.176903) can0 18EFAA80#0D9144FF8600C3EF
(1607034636.177581) can0 18EFAA80#0D92EFFFEDFF0300
(1607034636.179647) can0 18EFC6AA#A1010000BD050000
(1607034636.180207) can0 18EFC6AA#A0002A0000000000
(1607034636.180772) can0 18F610AA#78C504804D36F23B
(1607034636.181339) can0 18EFAAC6#A0002A0090050000
(1607034636.181836) can0 18F618AA#2A6D45159503A58B
(1607034636.182466) can0 18EFAAC6#A140BD0500000000
(1607034636.182947) can0 18F619AA#69C8C9E8EE3FACCE
(1607034636.183521) can0 18EFAAC6#A200000000000000
(1607034636.184114) can0 18F61AAA#9250C900BDFAFE19
(1607034636.184736) can0 18F61BAA#584112A610F39FA8
(1607034636.185127) can0 18F61CAA#DE0A8D4ADB9EDE1E
(1607034636.196333) can0 18EFAA80#0DA000BA590B0B00
(1607034636.196892) can0 18EFAA80#0DA127FF6E00C7EF
(1607034636.197566) can0 18EFAA80#0DA2F2FFE9FF0600
(1607034636.199372) can0 18EFC6AA#A1010000BD050000
(1607034636.199994) can0 18EFC6AA#A0001B0000000000
(1607034636.200613) can0 18EFAAC6#A0001B0000000000
(1607034636.201161) can0 18FEF3AA#9818F3944265843E
(1607034636.201806) can0 18FEE8AA#BC654A00F962814D
(1607034636.202338) can0 18EFAAC6#A140BD0500000000
(1607034636.202938) can0 18F610AA#0E5B3081E33BF55A
(1607034636.203517) can0 18F618AA#A4A25736ACF49D82
(1607034636.203867) can0 18F619AA#A1E8BD5B3EEF8141
(1607034636.204433) can0 18F61AAA#E3AB30ABE714318B
(1607034636.204938) can0 18F61BAA#773C18CDE37C6634
(1607034636.205492) can0 18F61CAA#3DFCA3D0F7A00245
(1607034636.216320) can0 18EFAA80#0DB000CE590B0B00
(1607034636.216912) can0 18EFAA80#0DB109FF670005F0
(1607034636.217576) can0 18EFAA80#0DB2F0FFE2FF0500
(1607034636.219629) can0 18EFC6AA#A1010000BD050000
(1607034636.220206) can0 18EFC6AA#A000000000000000
(1607034636.220751) can0 18F610AA#462D8C37F64C1AA5
(1607034636.221311) can0 18EFAAC6#A000000001000000
(1607034636.221874) can0 18F618AA#7AD74AEFBCF6635A
(1607034636.222465) can0 18EFAAC6#A140BD0500000000
(1607034636.223001) can0 18F619AA#20654483FFFBA388
(1607034636.223510) can0 18F61AAA#02997FD9846F0B44
(1607034636.224017) can0 18F61BAA#C8476DF76558470F
(1607034636.224581) can0 18F61CAA#3D8C820AA1B085F5
(1607034636.236319) can0 18EFAA80#0DC000E2590B0B00
(1607034636.236904) can0 18EFAA80#0DC1EAFE6E0022F0
(1607034636.237570) can0 18EFAA80#0DC2F1FFE0FF0300
(1607034636.239372) can0 18EFC6AA#A1010000BD050000
(1607034636.240455) can0 18F610AA#47D192101959F46D
(1607034636.241005) can0 18F618AA#9E3B3FF290AE56B8
(1607034636.241539) can0 18F619AA#359F431FBA16A917
(1607034636.242068) can0 18F61AAA#27B8840D586EB9D1
(1607034636.242632) can0 18EFAAC6#A140BD0500000000
(1607034636.243179) can0 18F61BAA#567BCC1C656389DD
(1607034636.243725) can0 18F61CAA#F22B18BBB3BE147D
(1607034636.256331) can0 18EFAA80#0DD000F6590B0B00
(1607034636.256883) can0 18EFAA80#0DD104FF78002AF0
(1607034636.257580) can0 18EFAA80#0DD2F2FFDEFF0200
(1607034636.259385) can0 18EFC6AA#A1010000BD050000
(1607034636.260510) can0 18FEE6AA#BD1D160C0C230000
(1607034636.261004) can0 18F610AA#E24002D5BDDCE75C
(1607034636.261552) can0 18F618AA#2206335F2D26786D
(1607034636.262137) can0 18F619AA#A6A5E509778BE24B
(1607034636.262631) can0 18EFAAC6#A140BD0500000000
(1607034636.263191) can0 18F61AAA#EEC5BADC98868E3D
(1607034636.263717) can0 18F61BAA#3B55FC8425B2B4AA
(1607034636.264241) can0 18F61CAA#B6CE18833BFF88FF
(1607034636.276330) can0 18EFAA80#0DE0000A5A0B0B00
(1607034636.276920) can0 18EFAA80#0DE107FF5B0019F0
(1607034636.277596) can0 18EFAA80#0DE2F5FFE0FF0000
(1607034636.279636) can0 18EFC6AA#A1010000BD050000
(1607034636.280548) can0 18F610AA#A0AAD9C1FAF142CD
(1607034636.281102) can0 18F618AA#58A37F238DD4F65E
(1607034636.281608) can0 18F619AA#F5B4534172907D10
(1607034636.282174) can0 18F61AAA#7794E200AA8395D7
(1607034636.282705) can0 18EFAAC6#A140BC0500000000
(1607034636.283279) can0 18EFAAC6#A200000000000000
(1607034636.283814) can0 18F61BAA#0A5D4233C78883B5
(1607034636.284395) can0 18F61CAA#BFB2D0169C1271C8
(1607034636.296336) can0 18EFAA80#0DF0001E5A0B0B00
(1607034636.296897) can0 18EFAA80#0DF1E5FE5B0017F0
(1607034636.297584) can0 18EFAA80#0DF2F8FFE1FF0100
(1607034636.299713) can0 18EFC6AA#A1010000BC050000
(1607034636.301212) can0 18FEF3AA#9918F3944265843E
(1607034636.301754) can0 18FEE8AA#BD654A00EC62814D
(1607034636.302346) can0 18EFAAC6#A140BC0500000000
(1607034636.302864) can0 18F610AA#E1AF11BDBCADF208
(1607034636.303370) can0 18F618AA#6D5C3A57A649922E
(1607034636.303898) can0 18F619AA#86CC5BBCBB469528
(1607034636.304426) can0 18F61AAA#964B8A25F215A8F3
(1607034636.304956) can0 18F61BAA#ED305158A7B0DADB
(1607034636.305509) can0 18F61CAA#9299F5BAE09E3E07
(1607034636.316321) can0 18EFAA80#0D0000325A0B0B00
(1607034636.316894) can0 18EFAA80#0D01E3FE6300FCEF
(1607034636.317587) can0 18EFAA80#0D02F5FFE6FF0100
(1607034636.319638) can0 18EFC6AA#A1010000BC050000
(1607034636.320592) can0 18F610AA#F23A592A2C17C16D
(1607034636.321159) can0 18F618AA#4791516B4891220D
(1607034636.321686) can0 18F619AA#2478D6E96BEDFD36
(1607034636.322237) can0 18F61AAA#D8226B0273F295D6
(1607034636.322785) can0 18EFAAC6#A140BB0500000000
(1607034636.323323) can0 18F61BAA#9B5016F101E1F2C5
(1607034636.323872) can0 18F61CAA#3EC9FFEF91FA4244
(1607034636.336328) can0 18EFAA80#0D1000465A0B0B00
(1607034636.336902) can0 18EFAA80#0D1105FF5C00E1EF
(1607034636.337637) can0 18EFAA80#0D12F6FFEFFFFEFF
(1607034636.339677) can0 18EFC6AA#A1010000BB050000
(1607034636.340617) can0 18F610AA#F6394E7855DF8250
(1607034636.341157) can0 18F618AA#A43ED69E70DFC5AF
(1607034636.341679) can0 18F619AA#07E03110EB4D891F
(1607034636.342251) can0 18F61AAA#CF8E085F49F6368B
(1607034636.357262) can0 18EFAAC6#A140BB0500000000
(1607034636.357289) can0 18F61BAA#AC02B5F8E3FE0295
(1607034636.357294) can0 18F61CAA#2CD6755A394205A4
(1607034636.357298) can0 18EFAA80#0D20005A5A0B0B00
(1607034636.357303) can0 18EFAA80#0D21E4FE5A00CFEF
(1607034636.357908) can0 18EFAA80#0D22F6FFF4FF0200
(1607034636.359642) can0 18EFC6AA#A1010000BB050000
(1607034636.360209) can0 18EFC6AA#A000140000000000
(1607034636.360743) can0 18F610AA#7293629813C6E349
(1607034636.361310) can0 18EFAAC6#A000140008080000
(1607034636.361858) can0 18F618AA#3F6655F895112CCB
(1607034636.369246) can0 18EFAAC6#A140BA0500000000
(1607034636.369275) can0 18F619AA#1AC9309F8F156CAC
(1607034636.369281) can0 18F61AAA#E55220B77FAB0F12
(1607034636.369289) can0 18F61BAA#FA4F6DC62EED767A
(1607034636.369295) can0 18F61CAA#5B2BF8C8FCD16397
(1607034636.376317) can0 18EFAA80#0D30006E5A0B0B00
(1607034636.376892) can0 18EFAA80#0D31EBFE5200DAEF
(1607034636.377571) can0 18EFAA80#0D32F1FFF8FFF9FF
(1607034636.379774) can0 18EFC6AA#A1010000BA050000
(1607034636.380485) can0 18EFC6AA#A0002A0000000000
(1607034636.381031) can0 18F610AA#D5DC59FB67FA121C
(1607034636.388472) can0 18EFAAC6#A0002A0093050000
(1607034636.388504) can0 18EFAAC6#A140BA0500000000
(1607034636.388510) can0 18F618AA#7BA427CE600A3011
(1607034636.388515) can0 18EFAAC6#A200000000000000
(1607034636.388522) can0 18F619AA#52A254A37679BC17
(1607034636.388527) can0 18F61AAA#11221698A61B0259
(1607034636.388533) can0 18F61BAA#E4F60B84909941BE
(1607034636.388539) can0 18F61CAA#713AE90D972D3DAC
(1607034636.396348) can0 18EFAA80#0D4000825A0B0B00
(1607034636.396919) can0 18EFAA80#0D41ECFE4A00FCEF
(1607034636.397574) can0 18EFAA80#0D42EDFF0000FDFF
(1607034636.401131) can0 18EFC6AA#A1010000BA050000
(1607034636.401682) can0 18EFC6AA#A0001B0000000000
(1607034636.402230) can0 18FEF3AA#9818F3944065843E
(1607034636.402794) can0 18EFAAC6#A140B90500000000
(1607034636.403364) can0 18EFAAC6#A0001B0000000000
(1607034636.403907) can0 18FEE8AA#BC650E00CC62814D
(1607034636.404514) can0 18F610AA#68D755EF91E5E34B
(1607034636.405069) can0 18F618AA#0AD9C24E0EF707A7
(1607034636.405557) can0 18F619AA#30CB89AFAF6EEE19
(1607034636.406058) can0 18F61AAA#AD20120FFD5B3158
(1607034636.406586) can0 18F61BAA#7D0BB9C388ECE2BD
(1607034636.407117) can0 18F61CAA#761F975982B46AF5
(1607034636.416346) can0 18EFAA80#0D5000965A0B0B00
(1607034636.416998) can0 18EFAA80#0D5100FF68001CF0
(1607034636.417587) can0 18EFAA80#0D52ECFF0500FEFF
(1607034636.419397) can0 18EFC6AA#A1010000B9050000
(1607034636.420002) can0 18EFC6AA#A000000000000000
(1607034636.420606) can0 18EFAAC6#A000000001000000
(1607034636.421169) can0 18F610AA#4BF87D9FFFD67FE0
(1607034636.421700) can0 18F618AA#E9186ACF3BEF2D94
(1607034636.422243) can0 18F619AA#D994E6FCDB1124C3
(1607034636.422806) can0 18EFAAC6#A140B80500000000
(1607034636.423323) can0 18F61AAA#449B2F5AFFB95F8C
(1607034636.423890) can0 18F61BAA#C638D4D2501E2034
(1607034636.424406) can0 18F61CAA#47B7B57CD5C8D3CE
(1607034636.436326) can0 18EFAA80#0D6000AA5A0B0B00
(1607034636.436909) can0 18EFAA80#0D610AFF4A0024F0
(1607034636.437565) can0 18EFAA80#0D62EDFF05000200
(1607034636.441729) can0 18EFC6AA#A1010000B8050000
(1607034636.442407) can0 18EFAAC6#A140B70500000000
(1607034636.442947) can0 18F610AA#DA23D9438123C546
(1607034636.443475) can0 18F618AA#BFE385A8C4FB4015
(1607034636.444031) can0 18F619AA#6CB4AA4459A0F4FE
(1607034636.444563) can0 18F61AAA#F01CA7071F2DE9F4
(1607034636.445091) can0 18F61BAA#DB565CB33EB4CB1B
(1607034636.445624) can0 18F61CAA#A259C96CF402DB88
(1607034636.456347) can0 18EFAA80#0D7000BE5A0B0B00
(1607034636.456908) can0 18EFAA80#0D710DFF4E0018F0
(1607034636.457569) can0 18EFAA80#0D72EFFF08000000
(1607034636.459376) can0 18EFC6AA#A1010000B7050000
(1607034636.460450) can0 18F610AA#DD7D631AEB9AE012
(1607034636.460985) can0 18F618AA#1E2B9D6DCED0DBC8
(1607034636.461518) can0 18F619AA#6CA971A9F6EDD185
(1607034636.462055) can0 18F61AAA#7F87C638826ABA29
(1607034636.462640) can0 18EFAAC6#A140B70500000000
(1607034636.463163) can0 18F61BAA#EE3E2FAC03007BB8
(1607034636.463712) can0 18F61CAA#16D6FE9626F04559
(1607034636.476328) can0 18EFAA80#0D8000D25A0B0B00
(1607034636.476894) can0 18EFAA80#0D814AFF42002AF0
(1607034636.477582) can0 18EFAA80#0D82EDFF04000800
(1607034636.479650) can0 18EFC6AA#A1010000B7050000
(1607034636.480607) can0 18F610AA#41A28F2C7E4F8BB9
(1607034636.481237) can0 18F618AA#94D4965522E872DC
(1607034636.481681) can0 18F619AA#A602536DF4C892D0
(1607034636.482303) can0 18F61AAA#600E5788BF1848D6
(1607034636.482796) can0 18EFAAC6#A140B70500000000
(1607034636.483343) can0 18F61BAA#0992F7D34C0766EA
(1607034636.483906) can0 18EFAAC6#A200000000000000
(1607034636.484408) can0 18F61CAA#9B8EBA02EF649152
(1607034636.496336) can0 18EFAA80#0D9000E65A0B0B00
(1607034636.496883) can0 18EFAA80#0D915CFF760046F0
(1607034636.497787) can0 18EFAA80#0D92EFFF05000600
(1607034636.499690) can0 18EFC6AA#A1010000B7050000
(1607034636.501134) can0 18FEF3AA#9818F3944065843E
(1607034636.501677) can0 18FEE8AA#BC650E00CF62814D
(1607034636.502213) can0 18FEE6AA#BE1D160C0C230000
(1607034636.502778) can0 18EFAAC6#A140B70500000000
(1607034636.503437) can0 18F610AA#B1628FEC4061C8C6
(1607034636.503847) can0 18F618AA#3FB33D459B44602C
(1607034636.504416) can0 18F619AA#A3032601D4170B69
(1607034636.504952) can0 18F61AAA#ED419798797A8CE1
(1607034636.505483) can0 18F61BAA#D6986464694B5F4B
(1607034636.506052) can0 18F61CAA#0743EA6E9CBD6FBC
(1607034636.516322) can0 18EFAA80#0DA000FA5A0B0B00
(1607034636.516888) can0 18EFAA80#0DA164FF900032F0
(1607034636.517578) can0 18EFAA80#0DA2EEFF05000A00
(1607034636.519662) can0 18EFC6AA#A1010000B7050000
(1607034636.520568) can0 18F610AA#4F8E9FB142C167DB
(1607034636.521104) can0 18F618AA#925817B3E13CA217
(1607034636.521637) can0 18F619AA#478FACFE2A17B795
(1607034636.522176) can0 18F61AAA#A81224E1F0601D72
(1607034636.522754) can0 18EFAAC6#A140B70500000000
(1607034636.523318) can0 18F61BAA#231F9C7B805B5A2C
(1607034636.523824) can0 18F61CAA#9C19ECFF63175AD5
(1607034636.536347) can0 18EFAA80#0DB0000E5B0B0B00
(1607034636.536924) can0 18EFAA80#0DB194FF700033F0
(1607034636.537569) can0 18EFAA80#0DB2ECFF04000800
(1607034636.539603) can0 18EFC6AA#A1010000B7050000
(1607034636.540511) can0 18F610AA#E19DCCAFEC4CF135
(1607034636.541062) can0 18F618AA#9B20451776FBD77F
(1607034636.541635) can0 18F619AA#6115B73D658A7ECA
(1607034636.542125) can0 18F61AAA#ECEEA671D83FE5B6
(1607034636.542677) can0 18EFAAC6#A140B70500000000
(1607034636.543213) can0 18F61BAA#32CBB893E3B0F9A5
(1607034636.543757) can0 18F61CAA#8ABE4F29741F0FE7
(1607034636.556339) can0 18EFAA80#0DC000225B0B0B00
(1607034636.556917) can0 18EFAA80#0DC19EFF640017F0
(1607034636.557600) can0 18EFAA80#0DC2F0FF03000700
(1607034636.559589) can0 18EFC6AA#A1010000B7050000
(1607034636.560184) can0 18EFC6AA#A000140000000000
(1607034636.560757) can0 18F610AA#ED3F39F00391A09B
(1607034636.569268) can0 18EFAAC6#A000140009080000
(1607034636.569291) can0 18F618AA#8F475E4737DB2EA2
(1607034636.569294) can0 18EFAAC6#A140B70500000000
(1607034636.569298) can0 18F619AA#6B078E8F7A68BF44
(1607034636.569304) can0 18F61AAA#7ECB6D24A23BE250
(1607034636.569307) can0 18F61BAA#974367852410983C
(1607034636.569310) can0 18F61CAA#A3F08DFACA6B1541
(1607034636.576320) can0 18EFAA80#0DD000365B0B0B00
(1607034636.576887) can0 18EFAA80#0DD1B6FF6100DBEF
(1607034636.577575) can0 18EFAA80#0DD2F3FF01000900
(1607034636.579636) can0 18EFC6AA#A1010000B7050000
(1607034636.580220) can0 18EFC6AA#A0002A0000000000
(1607034636.580752) can0 18F610AA#C44DB9AB4E177B30
(1607034636.588599) can0 18EFAAC6#A0002A008B050000
(1607034636.588655) can0 18F618AA#FD8D8C7230782EA4
(1607034636.588664) can0 18EFAAC6#A140B70500000000
(1607034636.588673) can0 18EFAAC6#A200000000000000
(1607034636.588699) can0 18F619AA#3BC28E49AD05A5D5
(1607034636.588706) can0 18F61AAA#39E9DC4243E02F9C
(1607034636.588711) can0 18F61BAA#7AABC2A63AA44E8D
(1607034636.588716) can0 18F61CAA#D77482C2666F750C
(1607034636.596331) can0 18EFAA80#0DE0004A5B0B0B00
(1607034636.596888) can0 18EFAA80#0DE1D5FF5200C8EF
(1607034636.597596) can0 18EFAA80#0DE2F2FFFFFF0700
(1607034636.599418) can0 18EFC6AA#A1010000B7050000
(1607034636.599984) can0 18EFC6AA#A0001B0000000000
(1607034636.600622) can0 18EFAAC6#A0001B0000000000
(1607034636.601209) can0 18FEF3AA#9A18F3944165843E
(1607034636.601741) can0 18FEE8AA#BC650400B662814D
(1607034636.602262) can0 18F610AA#182BA5A2641C0903
(1607034636.610159) can0 18EFAAC6#A140B70500000000
(1607034636.610213) can0 18F618AA#BDEB1E6AA25CB614
(1607034636.610218) can0 18F619AA#331A71D74244F0C6
(1607034636.610224) can0 18F61AAA#1478D9581D557A8A
(1607034636.610230) can0 18F61BAA#D0D18800E104D9B6
(1607034636.610237) can0 18F61CAA#46DD9532DF440719
(1607034636.616311) can0 18EFAA80#0DF0005E5B0B0B00
(1607034636.616899) can0 18EFAA80#0DF1ECFF3800B9EF
(1607034636.617591) can0 18EFAA80#0DF2F4FFFBFF0A00
(1607034636.619605) can0 18EFC6AA#A1010000B7050000
(1607034636.620178) can0 18EFC6AA#A000000000000000
(1607034636.620725) can0 18F610AA#9F54600C393B01F3
(1607034636.621303) can0 18EFAAC6#A000000001000000
(1607034636.621850) can0 18F618AA#18120E91663B21D4
(1607034636.622378) can0 18F619AA#41D601448DA83758
(1607034636.622948) can0 18EFAAC6#A140B70500000000
(1607034636.623472) can0 18F61AAA#8441A5B2B8BB84CF
(1607034636.624018) can0 18F61BAA#63C1351B8F9F6236
(1607034636.624536) can0 18F61CAA#9C337936A850DD22
(1607034636.636325) can0 18EFAA80#0D0000725B0B0B00
(1607034636.636882) can0 18EFAA80#0D01EAFF4300A3EF
(1607034636.637573) can0 18EFAA80#0D02F5FFFBFF0900
(1607034636.639381) can0 18EFC6AA#A1010000B7050000
(1607034636.640500) can0 18F610AA#206A6D9DF18E8CD4
(1607034636.641020) can0 18F618AA#E5E79F3E1358E7AB
(1607034636.641582) can0 18F619AA#4D76E6CB5967FEE5
(1607034636.642077) can0 18F61AAA#B1A272461085E435
(1607034636.642617) can0 18F61BAA#AB2D208F894ABC15
(1607034636.643182) can0 18EFAAC6#A140B70500000000
(1607034636.643764) can0 18F61CAA#EC0B6218F743C31F
(1607034636.656707) can0 18EFAA80#0D1000865B0B0B00
(1607034636.657288) can0 18EFAA80#0D1109003E00ABEF
(1607034636.658028) can0 18EFAA80#0D12F6FFF8FF0B00
(1607034636.659660) can0 18EFC6AA#A1010000B7050000
(1607034636.660625) can0 18F610AA#ECEE02480693FF5A
(1607034636.661156) can0 18F618AA#38F5934C7167DFF6
(1607034636.661688) can0 18F619AA#61326895F4DB00E6
(1607034636.662213) can0 18F61AAA#43AB1A56A4EAD8D4
(1607034636.662787) can0 18EFAAC6#A140B70500000000
(1607034636.663520) can0 18F61BAA#13686EF2F86CBD0F
(1607034636.663919) can0 18F61CAA#88B6886FBB4A0F5E
(1607034636.676320) can0 18EFAA80#0D20009A5B0B0B00
(1607034636.677002) can0 18EFAA80#0D2122005200C5EF
(1607034636.677853) can0 18EFAA80#0D22F3FFF9FF1000
(1607034636.679612) can0 18EFC6AA#A1010000B7050000
(1607034636.680524) can0 18F610AA#BEDC27FFE1FCD458
(1607034636.681070) can0 18F618AA#F4527A2BFC434BDC
(1607034636.681604) can0 18F619AA#4312546A31F276EC
(1607034636.682124) can0 18F61AAA#61FE585F1EFCBF13
(1607034636.682656) can0 18F61BAA#5355D2901ABA372E
(1607034636.683438) can0 18EFAAC6#A140B70500000000
(1607034636.683798) can0 18EFAAC6#A200000000000000
(1607034636.684401) can0 18F61CAA#7D2CD5BB0C36372B
(1607034636.696305) can0 18EFAA80#0D3000AE5B0B0B00
(1607034636.696904) can0 18EFAA80#0D312F005F00DDEF
(1607034636.697562) can0 18EFAA80#0D32F2FFFAFF0E00
(1607034636.699633) can0 18EFC6AA#A1010000B7050000
(1607034636.700648) can0 18FEF3AA#9A18F3944165843E
(1607034636.701237) can0 18FEE8AA#BC650400B362814D
(1607034636.701723) can0 18F610AA#9E1389CEE09B240F
(1607034636.702264) can0 18F618AA#C6FA0844DF2A5EAC
(1607034636.702848) can0 18EFAAC6#A140B70500000000
(1607034636.703384) can0 18F619AA#939D7044EB973FED
(1607034636.703985) can0 18F61AAA#7CA3227E6D5C0CFD
(1607034636.704476) can0 18F61BAA#C00C1459368CB9C8
(1607034636.705020) can0 18F61CAA#6031203C5FFB729D
(1607034636.716322) can0 18EFAA80#0D4000C25B0B0B00
(1607034636.716893) can0 18EFAA80#0D414200640005F0
(1607034636.717554) can0 18EFAA80#0D42F0FFFAFF0E00
(1607034636.719667) can0 18EFC6AA#A1010000B7050000
(1607034636.720589) can0 18F610AA#15AAFE6E655206FA
(1607034636.721110) can0 18F618AA#6CEE2323BB71A45D
(1607034636.721652) can0 18F619AA#E9700149B20EC172
(1607034636.722187) can0 18F61AAA#A507C43925418A9E
(1607034636.722724) can0 18F61BAA#9E92D7704727B3FC
(1607034636.723346) can0 18EFAAC6#A140B70500000000
(1607034636.723848) can0 18F61CAA#6E4359EA95669CE8
(1607034636.736343) can0 18EFAA80#0D5000D65B0B0B00
(1607034636.736889) can0 18EFAA80#0D515400710030F0
(1607034636.737659) can0 18EFAA80#0D52EBFFFAFF0C00
(1607034636.739605) can0 18EFC6AA#A1010000B7050000
(1607034636.740513) can0 18F610AA#2DFEE5994D235D17
(1607034636.741037) can0 18F618AA#F2254A9CB0B14EBA
(1607034636.741581) can0 18F619AA#F5A744C9B0A3D22E
(1607034636.742149) can0 18F61AAA#F703182733F6FA0C
(1607034636.742637) can0 18F61BAA#9C6BDB7FC3A86CE8
(1607034636.743253) can0 18EFAAC6#A140B70500000000
(1607034636.743734) can0 18F61CAA#83CA6285D8CA326D
(1607034636.756305) can0 18EFAA80#0D6000EA5B0B0B00
(1607034636.756882) can0 18EFAA80#0D614F0074003CF0
(1607034636.757570) can0 18EFAA80#0D62EFFFFCFF0B00
(1607034636.759390) can0 18EFC6AA#A1010000B7050000
(1607034636.759964) can0 18EFC6AA#A000140000000000
(1607034636.760592) can0 18EFAAC6#A000140007080000
(1607034636.761156) can0 18FEE6AA#BF1D160C0C230000
(1607034636.761679) can0 18F610AA#5DC97FF12B224A9D
(1607034636.762197) can0 18F618AA#4A09EDAFE59B1AE3
(1607034636.762733) can0 18F619AA#D3188F403B3BD93F
(1607034636.763307) can0 18EFAAC6#A140B70500000000
(1607034636.763846) can0 18F61AAA#8B65FB6F60BA42C0
(1607034636.764434) can0 18F61BAA#9FD015F32565582E
(1607034636.764963) can0 18F61CAA#9E357DEABE0C7582
(1607034636.776317) can0 18EFAA80#0D7000FE5B0B0B00
(1607034636.776889) can0 18EFAA80#0D714F007D005EF0
(1607034636.777565) can0 18EFAA80#0D72EEFFFBFF0C00
(1607034636.779661) can0 18EFC6AA#A1010000B7050000
(1607034636.780238) can0 18EFC6AA#A0002A0000000000
(1607034636.780780) can0 18F610AA#DCE3E4C7E07A4607
(1607034636.781360) can0 18EFAAC6#A0002A0092050000
(1607034636.781890) can0 18F618AA#615DC61A6152207F
(1607034636.782436) can0 18F619AA#8B09EFEEB9BDF723
(1607034636.782991) can0 18EFAAC6#A140B70500000000
(1607034636.783540) can0 18F61AAA#08E0DBAC0F11FF10
(1607034636.784113) can0 18EFAAC6#A200000000000000
(1607034636.784650) can0 18F61BAA#33BBEF24C48DB8BA
(1607034636.785192) can0 18F61CAA#ECBE064F1E25FA00
(1607034636.796358) can0 18EFAA80#0D8000125C0B0B00
(1607034636.796908) can0 18EFAA80#0D815600760056F0
(1607034636.797593) can0 18EFAA80#0D82F4FFFDFF0F00
(1607034636.799404) can0 18EFC6AA#A1010000B7050000
(1607034636.800013) can0 18EFC6AA#A0001B0000000000
(1607034636.800653) can0 18EFAAC6#A0001B0000000000
(1607034636.801294) can0 18FEF3AA#9D18F3944365843E
(1607034636.801883) can0 18FEE8AA#BC653900B362814D
(1607034636.802221) can0 18F610AA#4B505728DBE1BD59
(1607034636.802761) can0 18F618AA#30414EB48A323BB7
(1607034636.803348) can0 18EFAAC6#A140B70500000000
(1607034636.803857) can0 18F619AA#E9C64129A9F954DD
(1607034636.804424) can0 18F61AAA#5F7155CEC59FA0F4
(1607034636.804990) can0 18F61BAA#F8A79E91D63FE822
(1607034636.805496) can0 18F61CAA#4C7C6E72F0E8F27B
(1607034636.816352) can0 18EFAA80#0D9000265C0B0B00
(1607034636.816889) can0 18EFAA80#0D916000790037F0
(1607034636.817580) can0 18EFAA80#0D92F2FFFCFF0D00
(1607034636.820565) can0 18EFC6AA#A1010000B7050000
(1607034636.821165) can0 18EFC6AA#A000000000000000
(1607034636.821735) can0 18F610AA#42D6149333588269
(1607034636.822266) can0 18EFAAC6#A000000001000000
(1607034636.822804) can0 18F618AA#0CD098D98F6B099C
(1607034636.823419) can0 18EFAAC6#A140B80500000000
(1607034636.823984) can0 18F619AA#6C07C38BDA0E6AAF
(1607034636.824410) can0 18F61AAA#6AA56C2AC38F29A4
(1607034636.824937) can0 18F61BAA#B28D999428BFB23C
(1607034636.825481) can0 18F61CAA#B09C73A3B7630255
(1607034636.836312) can0 18EFAA80#0DA0003A5C0B0B00
(1607034636.836891) can0 18EFAA80#0DA15300710019F0
(1607034636.837558) can0 18EFAA80#0DA2F6FFFCFF0900
(1607034636.839383) can0 18EFC6AA#A1010000B8050000
(1607034636.840454) can0 18F610AA#A6CC2BFCA75C3454
(1607034636.840999) can0 18F618AA#4F815D871F68F4FF
(1607034636.841541) can0 18F619AA#125F8B02DE109979
(1607034636.842100) can0 18F61AAA#EF657E6084147BE6
(1607034636.842620) can0 18F61BAA#5F19D628186B77FE
(1607034636.843192) can0 18EFAAC6#A140B80500000000
(1607034636.843732) can0 18F61CAA#19DCC9E0F5953AA1
(1607034636.856305) can0 18EFAA80#0DB0004E5C0B0B00
(1607034636.856889) can0 18EFAA80#0DB14F007600F9EF
(1607034636.857581) can0 18EFAA80#0DB2F6FFFEFF0A00
(1607034636.861674) can0 18EFC6AA#A1010000B8050000
(1607034636.862478) can0 18F610AA#004F73960F912CBB
(1607034636.869778) can0 18EFAAC6#A140B90500000000
(1607034636.869797) can0 18F618AA#DBEC3461E04AF0D7
(1607034636.869802) can0 18F619AA#56EE1C8F34D27B1A
(1607034636.869805) can0 18F61AAA#B4B9E3F11177753E
(1607034636.869809) can0 18F61BAA#6C0DB7303BD36099
(1607034636.869812) can0 18F61CAA#BAF5496C164B7856
(1607034636.876319) can0 18EFAA80#0DC000625C0B0B00
(1607034636.876890) can0 18EFAA80#0DC146006500CFEF
(1607034636.877575) can0 18EFAA80#0DC2F9FFFFFF0600
(1607034636.879681) can0 18EFC6AA#A1010000B9050000
(1607034636.880615) can0 18F610AA#E147E813C00BA137
(1607034636.881171) can0 18F618AA#AECA7119863678A9
(1607034636.881658) can0 18F619AA#69EE9C2F424ACE2D
(1607034636.882202) can0 18F61AAA#ADB045F48810CCDC
(1607034636.882752) can0 18F61BAA#1A06A7F128C7C414
(1607034636.883423) can0 18EFAAC6#A140BA0500000000
(1607034636.883869) can0 18F61CAA#8A72FA6CCF116702
(1607034636.884495) can0 18EFAAC6#A200000000000000
(1607034636.896312) can0 18EFAA80#0DD000765C0B0B00
(1607034636.896898) can0 18EFAA80#0DD13C006A00C2EF
(1607034636.897573) can0 18EFAA80#0DD2FBFFFEFF0B00
(1607034636.899654) can0 18EFC6AA#A1010000BA050000
(1607034636.902772) can0 18FEF3AA#9E18F3944365843E
(1607034636.903342) can0 18EFAAC6#A140BB0500000000
(1607034636.903873) can0 18FEE8AA#BC653900B062814D
(1607034636.904416) can0 18F610AA#0EE7BC6341C012B3
(1607034636.904942) can0 18F618AA#D04DD34BD89C4041
(1607034636.905476) can0 18F619AA#53A539FA98221CC0
(1607034636.906015) can0 18F61AAA#1D390BB35349B8B9
(1607034636.906564) can0 18F61BAA#5AD895F5A5C810EA
(1607034636.907081) can0 18F61CAA#E529982E3FCD39FA
(1607034636.916316) can0 18EFAA80#0DE0008A5C0B0B00
(1607034636.916867) can0 18EFAA80#0DE147005700C9EF
(1607034636.917560) can0 18EFAA80#0DE2F8FFFEFF0E00
(1607034636.919625) can0 18EFC6AA#A1010000BB050000
(1607034636.920529) can0 18F610AA#9017BBCA24B065D9
(1607034636.921084) can0 18F618AA#6C722C5370088604
(1607034636.921600) can0 18F619AA#516759EFBE818AFD
(1607034636.922133) can0 18F61AAA#E1C049B98B5DF564
(1607034636.922665) can0 18F61BAA#02496B7CAC359710
(1607034636.923242) can0 18EFAAC6#A140BD0500000000
(1607034636.923791) can0 18F61CAA#7F7EEFDF9AFE7D92
(1607034636.936709) can0 18EFAA80#0DF0009E5C0B0B00
(1607034636.937287) can0 18EFAA80#0DF131005A00C1EF
(1607034636.938064) can0 18EFAA80#0DF2F9FFFAFF0A00
(1607034636.939688) can0 18EFC6AA#A1010000BD050000
(1607034636.940649) can0 18F610AA#37F1A6FDED3157C2
(1607034636.941272) can0 18F618AA#3DC4FBE6D210E296
(1607034636.941744) can0 18F619AA#C929D5A34482FC38
(1607034636.942257) can0 18F61AAA#A04601CDD247D1CD
(1607034636.942787) can0 18F61BAA#A5E663D871D13E30
(1607034636.943390) can0 18EFAAC6#A140BE0500000000
(1607034636.943878) can0 18F61CAA#F364FA18E739DDEA
(1607034636.956326) can0 18EFAA80#0D0000B25C0B0B00
(1607034636.956898) can0 18EFAA80#0D011C005900C5EF
(1607034636.957573) can0 18EFAA80#0D02FBFFFAFF0500
(1607034636.959651) can0 18EFC6AA#A1010000BE050000
(1607034636.960232) can0 18EFC6AA#A000140000000000
(1607034636.960805) can0 18F610AA#3FCFAC439768F406
(1607034636.969054) can0 18EFAAC6#A000140008080000
(1607034636.969104) can0 18F618AA#53DE9FABC8FC4D9C
(1607034636.969127) can0 18F619AA#8F433679D19C15A7
(1607034636.969135) can0 18EFAAC6#A140BD0500000000
(1607034636.969141) can0 18F61AAA#EF150FF7ADAE270B
(1607034636.969158) can0 18F61BAA#831ACC1DF52F01B1
(1607034636.969164) can0 18F61CAA#A70AFE3C6967B4E2
(1607034636.976320) can0 18EFAA80#0D1000C65C0B0B00
(1607034636.976870) can0 18EFAA80#0D110B005100DFEF
(1607034636.977592) can0 18EFAA80#0D12F9FFF6FF0C00
(1607034636.979690) can0 18EFC6AA#A1010000BD050000
(1607034636.980257) can0 18EFC6AA#A0002A0000000000
(1607034636.980784) can0 18F610AA#44C68E9BA945AD4C
(1607034636.981353) can0 18EFAAC6#A0002A0092050000
(1607034636.981884) can0 18F618AA#BDD2F6F4CE155070
(1607034636.982420) can0 18F619AA#ED4BC52D59D275C4
(1607034636.982960) can0 18F61AAA#E93C398EBB5A631F
(1607034636.990242) can0 18EFAAC6#A140BD0500000000
(1607034636.990261) can0 18EFAAC6#A200000000000000
(1607034636.990265) can0 18F61BAA#F54A400C5201E331
(1607034636.990268) can0 18F61CAA#1AC1B27BA0DB445E
(1607034636.996311) can0 18EFAA80#0D2000DA5C0B0B00
(1607034636.996886) can0 18EFAA80#0D21EAFF6A00F2EF
(1607034636.997767) can0 18EFAA80#0D22FAFFF6FF0700
(1607034636.999690) can0 18EFC6AA#A1010000BD050000
(1607034637.000238) can0 18EFC6AA#A0001B0000000000
(1607034637.000795) can0 18FEF3AA#A018F3944465843E
(1607034637.001361) can0 18EFAAC6#A0001B0000000000
(1607034637.001966) can0 18FEE8AA#BC655300C062814D
(1607034637.002462) can0 18FEE6AA#C01D160C0C230000
(1607034637.002992) can0 18F610AA#C04BD9FC462BE9CA
(1607034637.003643) can0 18EFAAC6#A140BD0500000000
(1607034637.004086) can0 18F618AA#BAB3B06226AB50A8
(1607034637.004633) can0 18F619AA#041A564259426795
(1607034637.005184) can0 18F61AAA#A45F549BC006F03E
(1607034637.005707) can0 18F61BAA#B9CDAFC74E657457
(1607034637.006252) can0 18F61CAA#3B1545402D75187D
(1607034637.016328) can0 18EFAA80#0D3000EE5C0B0B00
(1607034637.016909) can0 18EFAA80#0D31EBFF6100F7EF
(1607034637.017558) can0 18EFAA80#0D32F9FFF2FF0900
(1607034637.019600) can0 18EFC6AA#A1010000BD050000
(1607034637.020191) can0 18EFC6AA#A000000000000000
(1607034637.020737) can0 18F610AA#C095909EA1F243EB
(1607034637.021330) can0 18EFAAC6#A000000001000000
(1607034637.021831) can0 18F618AA#5B0F74F8F475465E
(1607034637.022365) can0 18F619AA#2542FC29CE6B7AD2
(1607034637.022917) can0 18F61AAA#52A743ECD230BC1E
(1607034637.023547) can0 18EFAAC6#A140BD0500000000
(1607034637.024017) can0 18F61BAA#77AA248709C13149
(1607034637.024536) can0 18F61CAA#82EC56A1D4CF47A1
(1607034637.036311) can0 18EFAA80#0D4000025D0B0B00
(1607034637.036904) can0 18EFAA80#0D41E4FF78001AF0
(1607034637.037569) can0 18EFAA80#0D42F6FFF1FF0D00
(1607034637.039634) can0 18EFC6AA#A1010000BD050000
(1607034637.040495) can0 18F610AA#4F672033C04653D1
(1607034637.041018) can0 18F618AA#176AB947923DA2E5
(1607034637.041594) can0 18F619AA#909963451548309A
(1607034637.042118) can0 18F61AAA#4F7B7453F2FCFC39
(1607034637.042627) can0 18F61BAA#C55F59FA0C862A2E
(1607034637.043194) can0 18EFAAC6#A140BE0500000000
(1607034637.043729) can0 18F61CAA#FBABD76207CE29E9
(1607034637.056313) can0 18EFAA80#0D5000165D0B0B00
(1607034637.056931) can0 18EFAA80#0D51C7FF7C0032F0
(1607034637.057562) can0 18EFAA80#0D52F8FFF3FF0500
(1607034637.059389) can0 18EFC6AA#A1010000BE050000
(1607034637.060474) can0 18F610AA#C84CBA6FA820C65A
(1607034637.061024) can0 18F618AA#6B3541A9F65D4F97
(1607034637.061561) can0 18F619AA#CEC7DA86A0BB07D0
(1607034637.062109) can0 18F61AAA#4F984D93D05C83AB
(1607034637.062654) can0 18F61BAA#C2194D0EB0FBCB3E
(1607034637.063214) can0 18EFAAC6#A140BE0500000000
(1607034637.063741) can0 18F61CAA#5F75529AFD7E23A1
(1607034637.076310) can0 18EFAA80#0D60002A5D0B0B00
(1607034637.076894) can0 18EFAA80#0D61C6FF7D0035F0
(1607034637.077622) can0 18EFAA80#0D62FAFFF4FF0700
(1607034637.079702) can0 18EFC6AA#A1010000BE050000
(1607034637.080580) can0 18F610AA#FB887AD2D781D37B
(1607034637.081110) can0 18F618AA#D4CA99109AFF0DBC
(1607034637.081653) can0 18F619AA#9BDB180B7CD352F6
(1607034637.082177) can0 18F61AAA#3628DD8CF3042A90
(1607034637.082708) can0 18F61BAA#86A03DB908A03DC9
(1607034637.083295) can0 18EFAAC6#A140BE0500000000
(1607034637.083822) can0 18F61CAA#3111E322CC7B149A
(1607034637.084408) can0 18EFAAC6#A200000000000000
(1607034637.096311) can0 18EFAA80#0D70003E5D0B0B00
(1607034637.096898) can0 18EFAA80#0D71B7FF7E0034F0
(1607034637.097567) can0 18EFAA80#0D72FAFFF2FF0000
(1607034637.099676) can0 18EFC6AA#A1010000BE050000
(1607034637.101143) can0 18FEF3AA#A118F3944465843E
(1607034637.101704) can0 18FEE8AA#BC655300B862814D
(1607034637.102224) can0 18F610AA#447293536E813474
(1607034637.102783) can0 18F618AA#22F1DCB27CB3F141
(1607034637.103323) can0 18EFAAC6#A140BE0500000000
(1607034637.103854) can0 18F619AA#72E2E2531B4FBEB4
(1607034637.104437) can0 18F61AAA#C1F7F6DBD22958AA
(1607034637.104963) can0 18F61BAA#4C7DA15F2A8C06C5
(1607034637.105508) can0 18F61CAA#56115948200D060B
(1607034637.116354) can0 18EFAA80#0D8000525D0B0B00
(1607034637.116888) can0 18EFAA80#0D81A5FF77002BF0
(1607034637.117564) can0 18EFAA80#0D82FAFFF2FF0900
(1607034637.119877) can0 18EFC6AA#A1010000BE050000
(1607034637.120082) can0 18EF80AA#01565400
(1607034637.120672) can0 18F610AA#8F46A7AA67D5974A
(1607034637.121103) can0 18EFAA80#01555600
(1607034637.121628) can0 18F618AA#1D77F6E8E5AA5641
(1607034637.122168) can0 18F619AA#68E051F1FB27B4A0
(1607034637.122704) can0 18F61AAA#EF503FE173672432
(1607034637.130601) can0 18EFAAC6#A140BE0500000000
(1607034637.130647) can0 18F61BAA#86513B254FDE2C89
(1607034637.130659) can0 18F61CAA#50CA249C25375A6D
(1607034637.136329) can0 18EFAA80#0D9000665D0B0B00
(1607034637.136928) can0 18EFAA80#0D91A0FF6F0021F0
(1607034637.137618) can0 18EFAA80#0D92F8FFF4FF0300
(1607034637.139635) can0 18EFC6AA#A1010000BE050000
(1607034637.140564) can0 18F610AA#559A6055E06820A5
(1607034637.141095) can0 18F618AA#B7E8B683A5CD4B42
(1607034637.141631) can0 18F619AA#1D0D8169954C2CCB
(1607034637.142178) can0 18F61AAA#F8AA5DE2E74308FD
(1607034637.142720) can0 18F61BAA#6DFC3B9D6EFB3FE3
(1607034637.143339) can0 18F61CAA#95DB44D7AFEE5623
(1607034637.143796) can0 18EFAAC6#A140BE0500000000
(1607034637.156309) can0 18EFAA80#0DA0007A5D0B0B00
(1607034637.156911) can0 18EFAA80#0DA193FF5E0011F0
(1607034637.157571) can0 18EFAA80#0DA2FCFFF5FF0400
(1607034637.159641) can0 18EFC6AA#A1010000BE050000
(1607034637.160226) can0 18EFC6AA#A000140000000000
(1607034637.160756) can0 18F610AA#0CB94C0FB7FA6800
(1607034637.168778) can0 18EFAAC6#A000140009080000
(1607034637.168821) can0 18F618AA#1C59972A64FA1F25
(1607034637.168831) can0 18F619AA#79519E6779C227C4
(1607034637.168842) can0 18EFAAC6#A140BE0500000000
(1607034637.168848) can0 18F61AAA#9E282922E870792C
(1607034637.168855) can0 18F61BAA#B7A169FF9BE70E92
(1607034637.168863) can0 18F61CAA#1F6F246F409B5F31
(1607034637.176302) can0 18EFAA80#0DB0008E5D0B0B00
(1607034637.176910) can0 18EFAA80#0DB180FF5F00E4EF
(1607034637.177570) can0 18EFAA80#0DB2FEFFF8FF0600
(1607034637.179641) can0 18EFC6AA#A1010000BE050000
(1607034637.180248) can0 18EFC6AA#A0002A0000000000
(1607034637.180796) can0 18F610AA#94F0B681051ABEE5
(1607034637.188668) can0 18EFAAC6#A0002A008D050000
(1607034637.188715) can0 18F618AA#7E48F4DBD85845B1
(1607034637.188722) can0 18F619AA#4587129817DDEB35
(1607034637.188727) can0 18EFAAC6#A140BE0500000000
(1607034637.188732) can0 18F61AAA#1935AFF16FC7A417
(1607034637.188742) can0 18EFAAC6#A200000000000000
(1607034637.188749) can0 18F61BAA#27DE83B73B32D9D3
(1607034637.188778) can0 18F61CAA#46240EC980F44D8F
(1607034637.196308) can0 18EFAA80#0DC000A25D0B0B00
(1607034637.196881) can0 18EFAA80#0DC181FF4500C3EF
(1607034637.197563) can0 18EFAA80#0DC2FAFFF9FF0400
(1607034637.199624) can0 18EFC6AA#A1010000BE050000
(1607034637.200199) can0 18EFC6AA#A0001B0000000000
(1607034637.200730) can0 18FEF3AA#A118F3944465843E
(1607034637.201308) can0 18EFAAC6#A0001B0000000000
(1607034637.201838) can0 18FEE8AA#BC654200C062814D
(1607034637.202384) can0 18F610AA#2A8D5D41D9196DE1
(1607034637.202958) can0 18F618AA#35EC0F3E9E5CCFE5
(1607034637.210698) can0 18EFAAC6#A140BE0500000000
(1607034637.210722) can0 18F619AA#69932ACB97DDA1AF
(1607034637.210726) can0 18F61AAA#09A1B84CA3608682
(1607034637.210729) can0 18F61BAA#9F6EDAED103F5F44
(1607034637.210732) can0 18F61CAA#F809440F3FFD1A08
(1607034637.216310) can0 18EFAA80#0DD000B65D0B0B00
(1607034637.216914) can0 18EFAA80#0DD178FF4400CDEF
(1607034637.217590) can0 18EFAA80#0DD20000FBFF0400
(1607034637.219641) can0 18EFC6AA#A1010000BE050000
(1607034637.220244) can0 18EFC6AA#A000000000000000
(1607034637.220761) can0 18F610AA#F4D0729187973139
(1607034637.221337) can0 18EFAAC6#A000000001000000
(1607034637.221881) can0 18F618AA#1C75BA89B7DCAADE
(1607034637.222408) can0 18F619AA#42D46E9136D037B9
(1607034637.222946) can0 18F61AAA#F9D7BFA7315D304F
(1607034637.230682) can0 18EFAAC6#A140BE0500000000
(1607034637.230716) can0 18F61BAA#38AE4D81221748FF
(1607034637.230722) can0 18F61CAA#DE03AAF6E0CB284C
(1607034637.236315) can0 18EFAA80#0DE000CA5D0B0B00
(1607034637.236889) can0 18EFAA80#0DE167FF5000BEEF
(1607034637.237560) can0 18EFAA80#0DE2FBFFFDFF0700
(1607034637.239671) can0 18EFC6AA#A1010000BE050000
(1607034637.240593) can0 18F610AA#60937494D4561AAF
(1607034637.241133) can0 18F618AA#4FD038C17A5310F5
(1607034637.241674) can0 18F619AA#20F8C661DBC3AD2E
(1607034637.242208) can0 18F61AAA#D74AFDD138F782B7
(1607034637.242756) can0 18F61BAA#7A2E19B583FE0004
(1607034637.243447) can0 18F61CAA#AE783E5DEB73C23C
(1607034637.243873) can0 18EFAAC6#A140BE0500000000
(1607034637.256311) can0 18EFAA80#0DF000DE5D0B0B00
(1607034637.256916) can0 18EFAA80#0DF180FF5100C0EF
(1607034637.257563) can0 18EFAA80#0DF2FFFFFEFF0500
(1607034637.259666) can0 18EFC6AA#A1010000BE050000
(1607034637.260631) can0 18FEE6AA#C11D160C0C230000
(1607034637.261150) can0 18F610AA#7C4D364FFDA2BDC4
(1607034637.261668) can0 18F618AA#AA0FBA6EB9714890
(1607034637.262204) can0 18F619AA#A47A09AE4703BA50
(1607034637.262765) can0 18F61AAA#9B4C37312FF58738
(1607034637.263275) can0 18F61BAA#73FF96395D60CC78
(1607034637.263856) can0 18EFAAC6#A140BE0500000000
(1607034637.264373) can0 18F61CAA#2F2238CAD1241CE0
(1607034637.276335) can0 18EFAA80#0D0000F25D0B0B00
(1607034637.276885) can0 18EFAA80#0D0185FF5900E9EF
(1607034637.277561) can0 18EFAA80#0D02FAFFFDFF0400
(1607034637.282135) can0 18EFC6AA#A1010000BE050000
(1607034637.282677) can0 18F610AA#5A912838F8B3ECD9
(1607034637.283183) can0 18F618AA#BC3A0DA4ACA28DE4
(1607034637.283747) can0 18EFAAC6#A140BE0500000000
(1607034637.284278) can0 18F619AA#AD34FC3AE3A19B7A
(1607034637.284905) can0 18EFAAC6#A200000000000000
(1607034637.285387) can0 18F61AAA#AF2F2B2893632209
(1607034637.285923) can0 18F61BAA#0E3D3178F99AD234
(1607034637.286469) can0 18F61CAA#78BD6F982F00C5F1
(1607034637.296316) can0 18EFAA80#0D1000065E0B0B00
(1607034637.296882) can0 18EFAA80#0D1184FF6A000AF0
(1607034637.297577) can0 18EFAA80#0D12FEFF00000800
(1607034637.299650) can0 18EFC6AA#A1010000BE050000
(1607034637.300628) can0 18FEF3AA#A118F3944465843E
(1607034637.301161) can0 18FEE8AA#BC654200BD62814D
(1607034637.301709) can0 18F610AA#5D6978F8CD4C0F7E
(1607034637.302233) can0 18F618AA#3B6EEB401B6CAA9E
(1607034637.302773) can0 18F619AA#019AE0D86ABEB2D1
(1607034637.303324) can0 18F61AAA#1DF4A0C4B5E21348
(1607034637.303897) can0 18EFAAC6#A140BE0500000000
(1607034637.304431) can0 18F61BAA#2383CBD137A3BF56
(1607034637.304963) can0 18F61CAA#DBC7A211771A56F7
(1607034637.316324) can0 18EFAA80#0D20001A5E0B0B00
(1607034637.316896) can0 18EFAA80#0D21ABFF660010F0
(1607034637.317561) can0 18EFAA80#0D22FEFF01000400
(1607034637.319757) can0 18EFC6AA#A1010000BE050000
(1607034637.322626) can0 18F610AA#BCF9E1E733A941B4
(1607034637.323190) can0 18F618AA#89E7C0D2ECF481F1
(1607034637.331033) can0 18EFAAC6#A140BE0500000000
(1607034637.331061) can0 18F619AA#C2A91CDD0CA67927
(1607034637.331068) can0 18F61AAA#4C4F9EA2F5F18CC3
(1607034637.331080) can0 18F61BAA#6E5692F8BF65AB2C
(1607034637.331087) can0 18F61CAA#24B847FE2AE387F9
(1607034637.336303) can0 18EFAA80#0D30002E5E0B0B00
(1607034637.336878) can0 18EFAA80#0D31D1FF6E002FF0
(1607034637.337563) can0 18EFAA80#0D32FDFF05000600
(1607034637.339652) can0 18EFC6AA#A1010000BE050000
(1607034637.340584) can0 18F610AA#18DB34E965FE5E04
(1607034637.341110) can0 18F618AA#D6F49B335EC7D7F3
(1607034637.341626) can0 18F619AA#38E8D80FAC518B94
(1607034637.342180) can0 18F61AAA#590B090B2D805A48
(1607034637.342699) can0 18F61BAA#E1E700C12B383F84
(1607034637.343249) can0 18F61CAA#7EBEAB418749CAE0
(1607034637.343804) can0 18EFAAC6#A140BE0500000000
(1607034637.356317) can0 18EFAA80#0D4000425E0B0B00
(1607034637.356888) can0 18EFAA80#0D41DCFF700060F0
(1607034637.357557) can0 18EFAA80#0D42FAFF09000A00
(1607034637.359674) can0 18EFC6AA#A1010000BE050000
(1607034637.360244) can0 18EFC6AA#A000140000000000
(1607034637.360770) can0 18F610AA#02A6EFBB5A016354
(1607034637.361338) can0 18EFAAC6#A000140007080000
(1607034637.361881) can0 18F618AA#063C9658C1C3D45E
(1607034637.362468) can0 18F619AA#331061518741CE7D
(1607034637.362939) can0 18F61AAA#D51EC5DD8F14B641
(1607034637.363481) can0 18F61BAA#24585A7F447BEF4D
(1607034637.364054) can0 18EFAAC6#A140BE0500000000
(1607034637.364577) can0 18F61CAA#7370E57BCA7EA482
(1607034637.376317) can0 18EFAA80#0D5000565E0B0B00
(1607034637.376878) can0 18EFAA80#0D51F8FF740068F0
(1607034637.377584) can0 18EFAA80#0D52FFFF0F000800
(1607034637.379647) can0 18EFC6AA#A1010000BE050000
(1607034637.380240) can0 18EFC6AA#A0002A0000000000
(1607034637.380771) can0 18F610AA#6BEBBC3C8EAE854F
(1607034637.387906) can0 18EFAAC6#A0002A0094050000
(1607034637.387931) can0 18F618AA#3E2A1EB2493D0580
(1607034637.387934) can0 18F619AA#0904D9739A4429D7
(1607034637.387939) can0 18F61AAA#F49BA44CEFAEE437
(1607034637.387942) can0 18EFAAC6#A140BE0500000000
(1607034637.387944) can0 18EFAAC6#A200000000000000
(1607034637.387948) can0 18F61BAA#D27C32319B319730
(1607034637.387973) can0 18F61CAA#9C1D04B41F93C658
(1607034637.396302) can0 18EFAA80#0D60006A5E0B0B00
(1607034637.396876) can0 18EFAA80#0D612600690054F0
(1607034637.397556) can0 18EFAA80#0D62FEFF15000800
(1607034637.399602) can0 18EFC6AA#A1010000BE050000
(1607034637.400180) can0 18EFC6AA#A0001B0000000000
(1607034637.400733) can0 18FEF3AA#A318F3944565843E
(1607034637.401304) can0 18EFAAC6#A0001B0000000000
(1607034637.401864) can0 18FEE8AA#BC653D00BF62814D
(1607034637.402367) can0 18F610AA#2D487D2FD3B9577F
(1607034637.402908) can0 18F618AA#9C87413BC401E9BF
(1607034637.403440) can0 18F619AA#B2BD5E464B6C199D
(1607034637.403995) can0 18EFAAC6#A140BE0500000000
(1607034637.404571) can0 18F61AAA#0F11C04DAEB4271E
(1607034637.405073) can0 18F61BAA#A8235B072908D613
(1607034637.405610) can0 18F61CAA#F03527B2E38CA2AC
(1607034637.416305) can0 18EFAA80#0D70007E5E0B0B00
(1607034637.416876) can0 18EFAA80#0D714300610045F0
(1607034637.417566) can0 18EFAA80#0D72FDFF16000A00
(1607034637.419393) can0 18EFC6AA#A1010000BE050000
(1607034637.419826) can0 18EFC6AA#01565500
(1607034637.420395) can0 18EFC6AA#A000000000000000
(1607034637.420804) can0 18EFAAC6#01565600
(1607034637.421412) can0 18EFAAC6#A000000001000000
(1607034637.421987) can0 18F610AA#7E871CA591F00D32
(1607034637.422442) can0 18F618AA#BCEB59139989125E
(1607034637.422973) can0 18F619AA#56ED17D7743E3476
(1607034637.423521) can0 18F61AAA#8D4C8CD127314C0A
(1607034637.424069) can0 18EFAAC6#A140BE0500000000
(1607034637.424612) can0 18F61BAA#F4BE87BCBFFDD3FA
(1607034637.425185) can0 18F61CAA#5AEECE9C5B27BEA0
(1607034637.436691) can0 18EFAA80#0D8000925E0B0B00
(1607034637.437271) can0 18EFAA80#0D815E00520013F0
(1607034637.438022) can0 18EFAA80#0D8200001C000900
(1607034637.439409) can0 18EFC6AA#A1010000BE050000
(1607034637.440483) can0 18F610AA#4D49108C5B8EC890
(1607034637.441016) can0 18F618AA#FCD88433983098A6
(1607034637.441553) can0 18F619AA#B58383CD0E44B621
(1607034637.442098) can0 18F61AAA#75043C0993B4EA82
(1607034637.442642) can0 18F61BAA#0D9D01CC6335D98C
(1607034637.443158) can0 18F61CAA#262675CB306DBA0A
(1607034637.443722) can0 18EFAAC6#A140BE0500000000
(1607034637.456331) can0 18EFAA80#0D9000A65E0B0B00
(1607034637.456889) can0 18EFAA80#0D9186004C00F6EF
(1607034637.457558) can0 18EFAA80#0D9200001C000900
(1607034637.459386) can0 18EFC6AA#A1010000BE050000
(1607034637.460506) can0 18F610AA#22E4C578362D3CF1
(1607034637.461018) can0 18F618AA#2D8D5AECEE0497EB
(1607034637.461552) can0 18F619AA#30B47A82AD5D1725
(1607034637.462070) can0 18F61AAA#5BD864A5E6199940
(1607034637.462598) can0 18F61BAA#243B93BC6D4D6B33
(1607034637.463147) can0 18F61CAA#42FF28F068B0D8CC
(1607034637.463803) can0 18EFAAC6#A140BE0500000000
(1607034637.476326) can0 18EFAA80#0DA000BA5E0B0B00
(1607034637.476879) can0 18EFAA80#0DA19B004400D7EF
(1607034637.477609) can0 18EFAA80#0DA2FEFF1F000900
(1607034637.479668) can0 18EFC6AA#A1010000BE050000
(1607034637.480552) can0 18F610AA#0CDAF9E33A3BD60A
(1607034637.481096) can0 18F618AA#21BB6EFA31BB83DE
(1607034637.481642) can0 18F619AA#A0035A37B6CE3BBD
(1607034637.482248) can0 18F61AAA#3AED2836DBEDB1E4
(1607034637.482755) can0 18F61BAA#DE09019FB11CADD3
(1607034637.483355) can0 18F61CAA#1AB72D2995F64484
(1607034637.483834) can0 18EFAAC6#A140BE0500000000
(1607034637.484700) can0 18EFAAC6#A200000000000000
(1607034637.496313) can0 18EFAA80#0DB000CE5E0B0B00
(1607034637.496869) can0 18EFAA80#0DB1B1004400B0EF
(1607034637.497570) can0 18EFAA80#0DB200001D000B00
(1607034637.499719) can0 18EFC6AA#A1010000BE050000
(1607034637.501129) can0 18FEF3AA#A318F3944565843E
(1607034637.501660) can0 18FEE8AA#BC653D00C762814D
(1607034637.502217) can0 18FEE6AA#C21D160C0C230000
(1607034637.502745) can0 18F610AA#5849B2FEF2D7A846
(1607034637.503333) can0 18F618AA#420C48D52F06A3D5
(1607034637.503878) can0 18EFAAC6#A140BE0500000000
(1607034637.504390) can0 18F619AA#DDD6E006F8E4DE06
(1607034637.504930) can0 18F61AAA#B3A684598F4C3143
(1607034637.505451) can0 18F61BAA#8C2E43ECAB51E48B
(1607034637.505993) can0 18F61CAA#BA60628CF1DB0390
(1607034637.516301) can0 18EFAA80#0DC000E25E0B0B00
(1607034637.516873) can0 18EFAA80#0DC1C0003D009CEF
(1607034637.517548) can0 18EFAA80#0DC2FCFF1E000B00
(1607034637.521362) can0 18EFC6AA#A1010000BE050000
(1607034637.522627) can0 18F610AA#C40C2C745723A527
(1607034637.523173) can0 18F618AA#01BF3DC63CE607FF
(1607034637.523726) can0 18F619AA#2FA014B71A204F57
(1607034637.524292) can0 18EFAAC6#A140BE0500000000
(1607034637.524825) can0 18F61AAA#886ED46BAABA1E3B
(1607034637.525345) can0 18F61BAA#26107A66B1E80BD3
(1607034637.525925) can0 18F61CAA#D894DBFF9C3848DA
(1607034637.536307) can0 18EFAA80#0DD000F65E0B0B00
(1607034637.536900) can0 18EFAA80#0DD1C1004B00A7EF
(1607034637.537632) can0 18EFAA80#0DD2F9FF1A000F00
(1607034637.539644) can0 18EFC6AA#A1010000BE050000
(1607034637.540589) can0 18F610AA#E0DD2E8774E87498
(1607034637.541097) can0 18F618AA#F804C4D82C567113
(1607034637.541646) can0 18F619AA#1D25189CF536700F
(1607034637.542217) can0 18F61AAA#715300D08C4D1D91
(1607034637.542754) can0 18F61BAA#7BD1B505DCC049A2
(1607034637.543417) can0 18F61CAA#C8C86ABCE3AA283A
(1607034637.543816) can0 18EFAAC6#A140BE0500000000
(1607034637.556325) can0 18EFAA80#0DE0000A5F0B0B00
(1607034637.556892) can0 18EFAA80#0DE1C7005000BBEF
(1607034637.557570) can0 18EFAA80#0DE2F7FF13000D00
(1607034637.559932) can0 18EFC6AA#A1010000BE050000
(1607034637.560250) can0 18EFC6AA#A000140000000000
(1607034637.560773) can0 18F610AA#76CE58D68020F9CE
(1607034637.561353) can0 18EFAAC6#A000140008080000
(1607034637.561882) can0 18F618AA#84E04CD0CBFE28BB
(1607034637.562437) can0 18F619AA#3850CF50F6D81CC7
(1607034637.562941) can0 18F61AAA#82B818C8AABDA62C
(1607034637.563496) can0 18F61BAA#4C4CE22C50BC6AD5
(1607034637.564029) can0 18EFAAC6#A140BE0500000000
(1607034637.564611) can0 18F61CAA#6198D11780F61F3B
(1607034637.576329) can0 18EFAA80#0DF0001E5F0B0B00
(1607034637.576942) can0 18EFAA80#0DF1C8004100D2EF
(1607034637.577560) can0 18EFAA80#0DF2F8FF11000500
(1607034637.579694) can0 18EFC6AA#A1010000BE050000
(1607034637.580309) can0 18EFC6AA#A0002A0000000000
(1607034637.580844) can0 18F610AA#A7EA598C08CE17C5
(1607034637.581398) can0 18EFAAC6#A0002A0091050000
(1607034637.581931) can0 18F618AA#ABE2E2D9D52978F2
(1607034637.582514) can0 18F619AA#A6E1D5994CA442A2
(1607034637.582974) can0 18F61AAA#B4BC17FB96437A4A
(1607034637.583547) can0 18F61BAA#E74FE2358BBC4F7E
(1607034637.584132) can0 18EFAAC6#A140BF0500000000
(1607034637.584656) can0 18F61CAA#D056E5DEDCDDB524
(1607034637.585204) can0 18EFAAC6#A200000000000000
(1607034637.596318) can0 18EFAA80#0D0000325F0B0B00
(1607034637.596955) can0 18EFAA80#0D01B7005300F2EF
(1607034637.597551) can0 18EFAA80#0D02F5FF0B000700
(1607034637.599620) can0 18EFC6AA#A1010000BF050000
(1607034637.600230) can0 18EFC6AA#A0001B0000000000
(1607034637.600721) can0 18FEF3AA#A418F3944665843E
(1607034637.601293) can0 18EFAAC6#A0001B0000000000
(1607034637.601871) can0 18FEE8AA#BC655200CE62814D
(1607034637.602383) can0 18F610AA#8852FC7241DE636F
(1607034637.602922) can0 18F618AA#E7B92ACF09A2C456
(1607034637.603426) can0 18F619AA#ABA8649E00581CE3
(1607034637.603991) can0 18EFAAC6#A140BF0500000000
(1607034637.604527) can0 18F61AAA#754C2CE9C0C1FC4C
(1607034637.605069) can0 18F61BAA#EC955A5B90C820FF
(1607034637.605615) can0 18F61CAA#1CE3526406FBAFBC
(1607034637.616350) can0 18EFAA80#0D1000465F0B0B00
(1607034637.616891) can0 18EFAA80#0D119F00540009F0
(1607034637.617634) can0 18EFAA80#0D12F5FF03000500
(1607034637.619635) can0 18EFC6AA#A1010000BF050000
(1607034637.620214) can0 18EFC6AA#A000000000000000
(1607034637.620758) can0 18F610AA#BD9DEBE69CE6D419
(1607034637.621321) can0 18EFAAC6#A000000001000000
(1607034637.621860) can0 18F618AA#A32A26EDE42454DE
(1607034637.622386) can0 18F619AA#1D9C9FB4B6AE4649
(1607034637.622957) can0 18F61AAA#B824F4B008F90467
(1607034637.623515) can0 18F61BAA#07AB333025229CD1
(1607034637.624036) can0 18EFAAC6#A140BF0500000000
(1607034637.624544) can0 18F61CAA#E7372E45CA571DB4
(1607034637.636310) can0 18EFAA80#0D20005A5F0B0B00
(1607034637.636915) can0 18EFAA80#0D2194005B0019F0
(1607034637.637616) can0 18EFAA80#0D22F4FFFCFF0700
(1607034637.639410) can0 18EFC6AA#A1010000BF050000
(1607034637.640495) can0 18F610AA#CC485B5608BAD617
(1607034637.641013) can0 18F618AA#3A5761B4DAC68530
(1607034637.641562) can0 18F619AA#EDABB3BB63658F08
(1607034637.642093) can0 18F61AAA#802120D80010FA27
(1607034637.642675) can0 18F61BAA#2E03702C2BE3F195
(1607034637.643180) can0 18F61CAA#E181CD2224360E07
(1607034637.643905) can0 18EFAAC6#A140BF0500000000
(1607034637.656317) can0 18EFAA80#0D30006E5F0B0B00
(1607034637.656869) can0 18EFAA80#0D316300670047F0
(1607034637.657547) can0 18EFAA80#0D32F2FFF2FF0500
(1607034637.659624) can0 18EFC6AA#A1010000BF050000
(1607034637.660517) can0 18F610AA#A4621CE33D438B41
(1607034637.661048) can0 18F618AA#8BC546F2B4796E15
(1607034637.661602) can0 18F619AA#50A6FEADF58BA323
(1607034637.662112) can0 18F61AAA#ADA065392BABBE98
(1607034637.662668) can0 18F61BAA#6D6F43C0B9D5F6C6
(1607034637.663197) can0 18F61CAA#490FA4120F72A46B
(1607034637.663926) can0 18EFAAC6#A140BF0500000000
(1607034637.676313) can0 18EFAA80#0D4000825F0B0B00
(1607034637.677097) can0 18EFAA80#0D413E007E0053F0
(1607034637.677594) can0 18EFAA80#0D42F2FFF4FF0700
(1607034637.679689) can0 18EFC6AA#A1010000BF050000
(1607034637.680634) can0 18F610AA#640ACDF55DE17703
(1607034637.681180) can0 18F618AA#2921AE40122DB3CB
(1607034637.681773) can0 18F619AA#9CC33D59A630ED62
(1607034637.682349) can0 18F61AAA#CC8BB79FDCE0C78F
(1607034637.682936) can0 18F61BAA#B70BEB4FD48AE9FB
(1607034637.683402) can0 18F61CAA#4A2D5F879CFF9B74
(1607034637.683974) can0 18EFAAC6#A140BF0500000000
(1607034637.684952) can0 18EFAAC6#A200000000000000
(1607034637.696308) can0 18EFAA80#0D5000965F0B0B00
(1607034637.696938) can0 18EFAA80#0D51470084001DF0
(1607034637.697549) can0 18EFAA80#0D52F4FFF3FF0A00
(1607034637.701336) can0 18EFC6AA#A1010000BF050000
(1607034637.702365) can0 18FEF3AA#A418F3944765843E
(1607034637.702976) can0 18FEE8AA#BC655200CC62814D
(1607034637.703499) can0 18F610AA#36755742CB2699CC
(1607034637.704085) can0 18EFAAC6#A140BF0500000000
(1607034637.704621) can0 18F618AA#5F4180FFBB62F0B0
(1607034637.705150) can0 18F619AA#622010FFA9E26B98
(1607034637.705682) can0 18F61AAA#811DC798F68369E2
(1607034637.706244) can0 18F61BAA#457BCB2EAC31F131
(1607034637.706750) can0 18F61CAA#0287ACFCCEAC8671
(1607034637.716306) can0 18EFAA80#0D6000AA5F0B0B00
(1607034637.716880) can0 18EFAA80#0D611B007000DBEF
(1607034637.717564) can0 18EFAA80#0D62F1FFEFFF0300
(1607034637.719709) can0 18EFC6AA#A1010000BF050000
(1607034637.720713) can0 18F610AA#70B8DED6BD2DE613
(1607034637.721228) can0 18F618AA#A8A35335AC93D012
(1607034637.721755) can0 18F619AA#A15BC42F0D9A680E
(1607034637.722290) can0 18F61AAA#E37829C94A2BDFFE
(1607034637.722841) can0 18F61BAA#08AE1D62042045B0
(1607034637.723365) can0 18F61CAA#D84565254B27F9FB
(1607034637.724050) can0 18EFAAC6#A140BF0500000000
(1607034637.736324) can0 18EFAA80#0D7000BE5F0B0B00
(1607034637.736918) can0 18EFAA80#0D710F005F00DEEF
(1607034637.737562) can0 18EFAA80#0D72F3FFECFF0200
(1607034637.741677) can0 18EFC6AA#A1010000BF050000
(1607034637.742306) can0 18F610AA#93051F432918ACE3
(1607034637.742841) can0 18F618AA#65C03D3FAF7D2E65
(1607034637.743413) can0 18F619AA#19E4E1160AB00F93
(1607034637.743932) can0 18F61AAA#514F47E28FC771F9
(1607034637.744495) can0 18EFAAC6#A140BF0500000000
(1607034637.745059) can0 18F61BAA#1D67D4D9FDFA10F7
(1607034637.745577) can0 18F61CAA#7EB0651E69D8AEA2
(1607034637.756315) can0 18EFAA80#0D8000D25F0B0B00
(1607034637.756896) can0 18EFAA80#0D81C3FF4800C0EF
(1607034637.757543) can0 18EFAA80#0D82F2FFEEFF0300
(1607034637.759608) can0 18EFC6AA#A1010000BF050000
(1607034637.760179) can0 18EFC6AA#A000140000000000
(1607034637.760768) can0 18FEE6AA#C31D160C0C230000
(1607034637.761318) can0 18EFAAC6#A000140008080000
(1607034637.761942) can0 18F610AA#345CED7B8DADFC0A
(1607034637.762426) can0 18F618AA#865C8D3BB412CA27
(1607034637.762911) can0 18F619AA#C6EDEE1DFD94EC26
(1607034637.763438) can0 18F61AAA#BA4A0D55FE236FC9
(1607034637.763982) can0 18F61BAA#10B9560D9AD1BE99
(1607034637.770940) can0 18EFAAC6#A140BF0500000000
(1607034637.770958) can0 18F61CAA#DCEF02B20B5B0C83
(1607034637.776306) can0 18EFAA80#0D9000E65F0B0B00
(1607034637.776881) can0 18EFAA80#0D91E4FF4600BFEF
(1607034637.777760) can0 18EFAA80#0D92F7FFF1FF0100
(1607034637.779670) can0 18EFC6AA#A1010000BF050000
(1607034637.780229) can0 18EFC6AA#A0002A0000000000
(1607034637.780769) can0 18F610AA#C5AAA1F1DEB379CA
(1607034637.781315) can0 18EFAAC6#A0002A008D050000
(1607034637.781857) can0 18F618AA#0CA2F04E680D87EF
(1607034637.782468) can0 18F619AA#288C5E439B2AC1FB
(1607034637.782923) can0 18F61AAA#A35428FCFAE2AA4E
(1607034637.783461) can0 18F61BAA#AC9302D4F611FC05
(1607034637.784022) can0 18F61CAA#5462A43EADE3707E
(1607034637.784560) can0 18EFAAC6#A140BF0500000000
(1607034637.785134) can0 18EFAAC6#A200000000000000
(1607034637.796337) can0 18EFAA80#0DA000FA5F0B0B00
(1607034637.796921) can0 18EFAA80#0DA1C0FF350097EF
(1607034637.797592) can0 18EFAA80#0DA2F7FFF7FF0000
(1607034637.799437) can0 18EFC6AA#A1010000BF050000
(1607034637.800004) can0 18EFC6AA#A0001B0000000000
(1607034637.800643) can0 18EFAAC6#A0001B0000000000
(1607034637.801185) can0 18FEF3AA#A418F3944565843E
(1607034637.801726) can0 18FEE8AA#BC652F00D962814D
(1607034637.802246) can0 18F610AA#F727C57F60BB4E9F
(1607034637.802979) can0 18F618AA#A3B24E98B0ED2479
(1607034637.803435) can0 18F619AA#04838C6AAD737823
(1607034637.803961) can0 18F61AAA#231F2FF25536FEFD
(1607034637.804467) can0 18EFAAC6#A140BF0500000000
(1607034637.804956) can0 18F61BAA#93123D00215E0E2B
(1607034637.805516) can0 18F61CAA#67A876C415EA5FCF
(1607034637.816358) can0 18EFAA80#0DB0000E600B0B00
(1607034637.816956) can0 18EFAA80#0DB1A6FF4100B0EF
(1607034637.817675) can0 18EFAA80#0DB2F4FFF9FF0100
(1607034637.819425) can0 18EFC6AA#A1010000BF050000
(1607034637.820007) can0 18EFC6AA#A000000000000000
(1607034637.820631) can0 18EFAAC6#A000000001000000
(1607034637.821177) can0 18F610AA#9BE1020D8F60DC58
(1607034637.821727) can0 18F618AA#EBF71155F9561A14
(1607034637.822236) can0 18F619AA#B4F5325C5B2A3449
(1607034637.822802) can0 18F61AAA#DE2207E54AEF3E45
(1607034637.823322) can0 18F61BAA#41623DB9FB850565
(1607034637.823859) can0 18F61CAA#26F9D402FCC64436
(1607034637.824425) can0 18EFAAC6#A140BE0500000000
(1607034637.836354) can0 18EFAA80#0DC00022600B0B00
(1607034637.836882) can0 18EFAA80#0DC177FF4E00DDEF
(1607034637.837582) can0 18EFAA80#0DC2F6FFFEFF0000
(1607034637.839616) can0 18EFC6AA#A1010000BE050000
(1607034637.840495) can0 18F610AA#33919354FC52E9EA
(1607034637.841035) can0 18F618AA#C3E756593514D87A
(1607034637.841605) can0 18F619AA#B80461B6801175CF
(1607034637.842108) can0 18F61AAA#8764C64058F367C4
(1607034637.842653) can0 18F61BAA#8E11239B6CEF1885
(1607034637.843233) can0 18F61CAA#4DE55CBE60F2DFBE
(1607034637.844146) can0 18EFAAC6#A140BE0500000000
(1607034637.856305) can0 18EFAA80#0DD00036600B0B00
(1607034637.856886) can0 18EFAA80#0DD163FF6D000CF0
(1607034637.857559) can0 18EFAA80#0DD2F8FF02000200
(1607034637.859647) can0 18EFC6AA#A1010000BE050000
(1607034637.860582) can0 18F610AA#1B7674601E905769
(1607034637.861172) can0 18F618AA#46001CD4E3D46148
(1607034637.861683) can0 18F619AA#FBCCA318746E9BC1
(1607034637.862186) can0 18F61AAA#326A53DE4CD353E4
(1607034637.862711) can0 18F61BAA#E219A53BC2B8C0DF
(1607034637.863261) can0 18F61CAA#514C798D49C616D2
(1607034637.864185) can0 18EFAAC6#A140BE0500000000
(1607034637.876324) can0 18EFAA80#0DE0004A600B0B00
(1607034637.876947) can0 18EFAA80#0DE161FF630024F0
(1607034637.877557) can0 18EFAA80#0DE2F6FF02000400
(1607034637.879676) can0 18EFC6AA#A1010000BE050000
(1607034637.880583) can0 18F610AA#918493EF285A156E
(1607034637.881119) can0 18F618AA#6CE0ACBFC2B01ECB
(1607034637.881655) can0 18F619AA#4E548DFD65D503F1
(1607034637.882210) can0 18F61AAA#56C18FE9E14E1BB8
(1607034637.882727) can0 18F61BAA#91E7E2888CC38CB0
(1607034637.883363) can0 18F61CAA#FE5AE041BD341433
(1607034637.884228) can0 18EFAAC6#A140BD0500000000
(1607034637.885243) can0 18EFAAC6#A200000000000000
(1607034637.896308) can0 18EFAA80#0DF0005E600B0B00
(1607034637.896883) can0 18EFAA80#0DF156FF740049F0
(1607034637.897551) can0 18EFAA80#0DF2F3FF05000200
(1607034637.899873) can0 18EFC6AA#A1010000BD050000
(1607034637.900944) can0 18FEF3AA#A518F3944565843E
(1607034637.901483) can0 18FEE8AA#BC652F00D862814D
(1607034637.902019) can0 18F610AA#64F07C4E9B2402E8
(1607034637.902582) can0 18F618AA#592F29F375A20EBA
(1607034637.903116) can0 18F619AA#0208152CB2E2C035
(1607034637.903662) can0 18F61AAA#54E1F584AA4D31BB
(1607034637.904168) can0 18F61BAA#C0E433360B2DD7CD
(1607034637.904741) can0 18EFAAC6#A140BC0500000000
(1607034637.905269) can0 18F61CAA#5F593BDBFB8DAB55
(1607034637.916306) can0 18EFAA80#0D000072600B0B00
(1607034637.916970) can0 18EFAA80#0D0153FF6C005BF0
(1607034637.917556) can0 18EFAA80#0D02F2FF06000000
(1607034637.921652) can0 18EFC6AA#A1010000BC050000
(1607034637.922349) can0 18F610AA#6E170727123861B4
(1607034637.922963) can0 18F618AA#21A1016877EC311A
(1607034637.923502) can0 18F619AA#4C962C2E62A20554
(1607034637.924031) can0 18F61AAA#77D1310D46201FB2
(1607034637.924597) can0 18EFAAC6#A140BB0500000000
(1607034637.925137) can0 18F61BAA#280CEFD5CB7993DF
(1607034637.925685) can0 18F61CAA#905A534404838FF3
(1607034637.936709) can0 18EFAA80#0D100086600B0B00
(1607034637.937271) can0 18EFAA80#0D116AFF7A005CF0
(1607034637.938013) can0 18EFAA80#0D12F2FF07000600
(1607034637.939665) can0 18EFC6AA#A1010000BB050000
(1607034637.940634) can0 18F610AA#6FE254250C93F564
(1607034637.941175) can0 18F618AA#313EC04A57251121
(1607034637.941713) can0 18F619AA#6A12788225ACFF7F
(1607034637.942276) can0 18F61AAA#BD66C2848BE9AA0A
(1607034637.942802) can0 18F61BAA#4A30A8AE8352278C
(1607034637.943358) can0 18F61CAA#FBAE87A81308C15E
(1607034637.944291) can0 18EFAAC6#A140B90500000000
(1607034637.956334) can0 18EFAA80#0D20009A600B0B00
(1607034637.956885) can0 18EFAA80#0D217BFF760042F0
(1607034637.957547) can0 18EFAA80#0D22F4FF0B000300
(1607034637.959621) can0 18EFC6AA#A1010000B9050000
(1607034637.960193) can0 18EFC6AA#A000140000000000
(1607034637.960744) can0 18F610AA#0EDE1AC30CC43B8A
(1607034637.961293) can0 18EFAAC6#A000140008080000
(1607034637.961908) can0 18F618AA#28E09F1ECE75328F
(1607034637.962366) can0 18F619AA#917850C48EA17695
(1607034637.962899) can0 18F61AAA#F5D72EBD5B9C34BE
(1607034637.963434) can0 18F61BAA#E9573EEC18AE7A21
(1607034637.963969) can0 18F61CAA#CB366C914DE8C632
(1607034637.964536) can0 18EFAAC6#A140B70500000000
(1607034637.976308) can0 18EFAA80#0D3000AE600B0B00
(1607034637.976920) can0 18EFAA80#0D3191FF6D0017F0
(1607034637.977552) can0 18EFAA80#0D32F4FF0E000200
(1607034637.979670) can0 18EFC6AA#A1010000B7050000
(1607034637.980238) can0 18EFC6AA#A0002A0000000000
(1607034637.980781) can0 18F610AA#7E358677AD748A70
(1607034637.988815) can0 18EFAAC6#A0002A0092050000
(1607034637.988886) can0 18F618AA#CED49257C8485BB2
(1607034637.988899) can0 18F619AA#2326A6900F41B4C6
(1607034637.988907) can0 18F61AAA#1691B0A0A2C518D3
(1607034637.988916) can0 18F61BAA#E436D1D3CD2AB3AA
(1607034637.988929) can0 18EFAAC6#A140B70500000000
(1607034637.988937) can0 18EFAAC6#A200000000000000
(1607034637.988946) can0 18F61CAA#D20061B959839155
(1607034637.996320) can0 18EFAA80#0D4000C2600B0B00
(1607034637.996875) can0 18EFAA80#0D41A6FF5A00EFEF
(1607034637.997582) can0 18EFAA80#0D42F2FF10000500
(1607034637.999681) can0 18EFC6AA#A1010000B7050000
(1607034638.000246) can0 18EFC6AA#A0001B0000000000
(1607034638.000846) can0 18FEF3AA#A218F3944565843E
(1607034638.009565) can0 18EFAAC6#A0001B0000000000
(1607034638.009609) can0 18FEE8AA#BC651200D062814D
(1607034638.009618) can0 18FEE6AA#C41D160C0C230000
(1607034638.009628) can0 18F610AA#29664CBAA84AECCE
(1607034638.009635) can0 18F618AA#AC86277952B011D6
(1607034638.009643) can0 18EFAAC6#A140B70500000000
(1607034638.009651) can0 18F619AA#BEEFC3828C621340
(1607034638.009658) can0 18F61AAA#7ADE3ADA25679473
(1607034638.009664) can0 18F61BAA#6768A83FEA87F603
(1607034638.009670) can0 18F61CAA#D926D5A980A5B9F2
(1607034638.016303) can0 18EFAA80#0D5000D6600B0B00
(1607034638.016885) can0 18EFAA80#0D51C9FF5300F0EF
(1607034638.017619) can0 18EFAA80#0D52F2FF0D000700
(1607034638.019431) can0 18EFC6AA#A1010000B7050000
(1607034638.019982) can0 18EFC6AA#A000000000000000
(1607034638.020631) can0 18EFAAC6#A000000001000000
(1607034638.021164) can0 18F610AA#2CD93FFD37FB8851
(1607034638.021696) can0 18F618AA#679AA1C07ACAC0F9
(1607034638.022230) can0 18F619AA#03A41778A9A114F2
(1607034638.022765) can0 18F61AAA#D608831DEE8D514B
(1607034638.023353) can0 18F61BAA#A8D543F2BF4C0F69
(1607034638.023834) can0 18F61CAA#32A69765EFF00D0E
(1607034638.024407) can0 18EFAAC6#A140B70500000000
(1607034638.036333) can0 18EFAA80#0D6000EA600B0B00
(1607034638.036865) can0 18EFAA80#0D61D5FF4200EAEF
(1607034638.037546) can0 18EFAA80#0D62F0FF10000700
(1607034638.039609) can0 18EFC6AA#A1010000B7050000
(1607034638.040524) can0 18F610AA#23C4753938D2D8DE
(1607034638.041028) can0 18F618AA#A793F72AC4B270DE
(1607034638.041560) can0 18F619AA#8E3BF126F3F1370D
(1607034638.042104) can0 18F61AAA#D460288AFEEFF12D
(1607034638.042632) can0 18F61BAA#DA9D41D52786ABC2
(1607034638.043188) can0 18F61CAA#BE9C6EB60DA8CFFC
(1607034638.044404) can0 18EFAAC6#A140B60500000000
(1607034638.056309) can0 18EFAA80#0D7000FE600B0B00
(1607034638.056898) can0 18EFAA80#0D71EEFF3E00C1EF
(1607034638.057549) can0 18EFAA80#0D72EFFF11000600
(1607034638.059401) can0 18EFC6AA#A1010000B6050000
(1607034638.060502) can0 18F610AA#56C64D7423421F75
(1607034638.061072) can0 18F618AA#4CA35B7BB8E72C1D
(1607034638.061658) can0 18F619AA#8AB7C126B0FD7454
(1607034638.062136) can0 18F61AAA#F859B7591F37124E
(1607034638.062636) can0 18F61BAA#8BDEDB4C1E951CB6
(1607034638.063164) can0 18F61CAA#4A06ACE5ABC433D6
(1607034638.064430) can0 18EFAAC6#A140B50500000000
(1607034638.076315) can0 18EFAA80#0D800012610B0B00
(1607034638.076912) can0 18EFAA80#0D81FFFF3700CFEF
(1607034638.077541) can0 18EFAA80#0D82F7FF13000600
(1607034638.079673) can0 18EFC6AA#A1010000B5050000
(1607034638.080801) can0 18F610AA#6D54E86B68F982EF
(1607034638.081339) can0 18F618AA#DFA6772F8C20E467
(1607034638.081860) can0 18F619AA#4F9C0737E21C6173
(1607034638.082410) can0 18F61AAA#6B56004B5D30A8E7
(1607034638.082945) can0 18F61BAA#054C0057C28B4D9A
(1607034638.083479) can0 18F61CAA#B52F3CAB85DAC8BC
(1607034638.084442) can0 18EFAAC6#A140B40500000000
(1607034638.085443) can0 18EFAAC6#A200000000000000
(1607034638.096316) can0 18EFAA80#0D900026610B0B00
(1607034638.096883) can0 18EFAA80#0D910B006000CBEF
(1607034638.097541) can0 18EFAA80#0D92F5FF12000600
(1607034638.099666) can0 18EFC6AA#A1010000B4050000
(1607034638.100642) can0 18FEF3AA#A218F3944565843E
(1607034638.101176) can0 18FEE8AA#BC651200D862814D
(1607034638.101694) can0 18F610AA#76EC393BC8336C94
(1607034638.102227) can0 18F618AA#1923D1CB30DC5E03
(1607034638.102768) can0 18F619AA#D0896341A42FDC21
(1607034638.103372) can0 18F61AAA#FF4903AD5B53CB9B
(1607034638.103826) can0 18F61BAA#58D99FB7D245EE33
(1607034638.104354) can0 18F61CAA#8E4DBC51342B0459
(1607034638.104921) can0 18EFAAC6#A140B10500000000
(1607034638.116306) can0 18EFAA80#0DA0003A610B0B00
(1607034638.116879) can0 18EFAA80#0DA10B005900EDEF
(1607034638.117574) can0 18EFAA80#0DA2F2FF0D000900
(1607034638.120749) can0 18EFC6AA#A1010000B1050000
(1607034638.121281) can0 18F610AA#B3E7A0F352B8C815
(1607034638.121812) can0 18F618AA#EB4306B5DB1880DD
(1607034638.122357) can0 18F619AA#D9AAFE0967DB0150
(1607034638.122900) can0 18F61AAA#D5C40E29BBCFF739
(1607034638.123430) can0 18F61BAA#97EA2DD7029DF9FB
(1607034638.123982) can0 18F61CAA#85547A3D83227B69
(1607034638.124519) can0 18EFAAC6#A140AE0500000000
(1607034638.136325) can0 18EFAA80#0DB0004E610B0B00
(1607034638.136880) can0 18EFAA80#0DB10A00540020F0
(1607034638.137551) can0 18EFAA80#0DB2F1FF0A000300
(1607034638.139690) can0 18EFC6AA#A1010000AE050000
(1607034638.140777) can0 18F610AA#2606BEB9B27C7ADD
(1607034638.141187) can0 18F618AA#8051396B48E96B37
(1607034638.141676) can0 18F619AA#BB05C618221E734F
(1607034638.142201) can0 18F61AAA#FA91B7DC70EDC51A
(1607034638.142750) can0 18F61BAA#9A0D013F54336CC2
(1607034638.143315) can0 18F61CAA#8CF6184625A2FCCB
(1607034638.144544) can0 18EFAAC6#A140AA0500000000
(1607034638.156323) can0 18EFAA80#0DC00062610B0B00
(1607034638.156890) can0 18EFAA80#0DC1F7FF6E0037F0
(1607034638.157559) can0 18EFAA80#0DC2EEFF0A000500
(1607034638.161722) can0 18EFC6AA#A1010000AA050000
(1607034638.162383) can0 18EFC6AA#A000140000000000
(1607034638.162858) can0 18F610AA#ADF3D119C2191BFC
(1607034638.163559) can0 18EFAAC6#A000140008080000
(1607034638.163917) can0 18F618AA#9CA5FACF465B42E4
(1607034638.164482) can0 18F619AA#CDC74039F0E7E282
(1607034638.165120) can0 18EFAAC6#A140A30500000000
(1607034638.165567) can0 18F61AAA#C11EEC5F24DE1D6D
(1607034638.166088) can0 18F61BAA#CAA5EB51B083032D
(1607034638.166632) can0 18F61CAA#7FF1D68F98D9F0A4
(1607034638.176303) can0 18EFAA80#0DD00076610B0B00
(1607034638.176877) can0 18EFAA80#0DD10500460012F0
(1607034638.177567) can0 18EFAA80#0DD2EEFF0B000C00
(1607034638.179737) can0 18EFC6AA#A1010000A3050000
(1607034638.180293) can0 18EFC6AA#A0002A0000000000
(1607034638.180863) can0 18F610AA#1D1F32709533F4A8
(1607034638.188048) can0 18EFAAC6#A0002A008D050000
(1607034638.188071) can0 18F618AA#5635536FA0D9BF7D
(1607034638.188076) can0 18F619AA#C43116AA4C9FD0C0
(1607034638.188080) can0 18F61AAA#8C88AFCB9E1ED200
(1607034638.188083) can0 18F61BAA#657404FFCD51D0E9
(1607034638.188087) can0 18EFAAC6#A1409A0500000000
(1607034638.188091) can0 18F61CAA#0F659E962343867D
(1607034638.188095) can0 18EFAAC6#A200000000000000
(1607034638.196301) can0 18EFAA80#0DE0008A610B0B00
(1607034638.196890) can0 18EFAA80#0DE121005B00D4EF
(1607034638.197540) can0 18EFAA80#0DE2EEFF0C000800
(1607034638.199624) can0 18EFC6AA#A10100009A050000
(1607034638.200227) can0 18EFC6AA#A0001B0000000000
(1607034638.200737) can0 18FEF3AA#A318F3944565843E
(1607034638.201321) can0 18EFAAC6#A0001B0000000000
(1607034638.202878) can0 18FEE8AA#BC651E00CC62814D
(1607034638.203451) can0 18F610AA#BA9BC2B367A0CC2E
(1607034638.203894) can0 18F618AA#9F98AE45CE9B056C
(1607034638.204424) can0 18F619AA#FBFC312E1B94D209
(1607034638.212297) can0 18EFAAC6#A140900500000000
(1607034638.212334) can0 18F61AAA#F6C19941B6BFF74E
(1607034638.212339) can0 18F61BAA#9D07CC28D324CCC4
(1607034638.212343) can0 18F61CAA#14575EB487D56555
(1607034638.216313) can0 18EFAA80#0DF0009E610B0B00
(1607034638.216880) can0 18EFAA80#0DF123005E00C9EF
(1607034638.217541) can0 18EFAA80#0DF2ECFF02000D00
(1607034638.219663) can0 18EFC6AA#A101000090050000
(1607034638.220309) can0 18EFC6AA#A000000000000000
(1607034638.220768) can0 18F610AA#72326DB7FD95A34D
(1607034638.229274) can0 18EFAAC6#A000000001000000
(1607034638.229362) can0 18F618AA#4737F67C1818D632
(1607034638.229370) can0 18F619AA#6A98A62FF61C5404
(1607034638.229376) can0 18F61AAA#429BBFE0B2A667E4
(1607034638.229379) can0 18F61BAA#0E12F398E7D6E996
(1607034638.229382) can0 18EFAAC6#A140860500000000
(1607034638.229385) can0 18F61CAA#F13ECB5DA2FD1AFD
(1607034638.236306) can0 18EFAA80#0D0000B2610B0B00
(1607034638.236897) can0 18EFAA80#0D0174002800F7EF
(1607034638.237539) can0 18EFAA80#0D02EEFFFDFF0E00
(1607034638.239441) can0 18EFC6AA#A101000086050000
(1607034638.240495) can0 18F610AA#5650E3C9E5821690
(1607034638.241012) can0 18F618AA#CA36F7A19E75CD5F
(1607034638.241546) can0 18F619AA#8B4617F2D1F99AA9
(1607034638.242087) can0 18F61AAA#FA15C85C346135A6
(1607034638.242625) can0 18F61BAA#7A2E19B583FE0004
(1607034638.243183) can0 18F61CAA#0C495059D12B7886
(1607034638.244652) can0 18EFAAC6#A1407E0500000000
(1607034638.256297) can0 18EFAA80#0D1000C6610B0B00
(1607034638.256889) can0 18EFAA80#0D1176006F001FF0
(1607034638.257538) can0 18EFAA80#0D12F0FF04000C00
(1607034638.259402) can0 18EFC6AA#A10100007E050000
(1607034638.260506) can0 18FEE6AA#C51D160C0C230000
(1607034638.261067) can0 18F610AA#1139925C10B4F4A0
